EC-Lab ASCII FILE
Nb header lines : 75                          

Potentio Electrochemical Impedance Spectroscopy

Run on channel : 4 (SN 4192)
User : 
CE vs. WE compliance from -10 V to 10 V
Electrode connection : standard
Ewe ctrl range : min = -10.00 V, max = 10.00 V
Safety Limits :
	Do not start on E overload
Acquisition started on : 01/22/2020 09:34:55
Technique started on : 01/22/2020 09:34:56
Saved on :
	File : DE_49_4_30.mpr
	Directory : P:\Chemistry\Data\VMP3\Kyler\DOE\DE_49\30C\
	Host : 10.0.4.99
Device : VMP3 (SN 0183)
Address : USB
EC-Lab for windows v11.33 (software)
Internet server v11.32 (firmware)
Command interpretor v11.33 (firmware)
Electrode material : 
Initial state : 
Electrolyte : 
Comments : 
Electrode surface area : 0.001 cm²
Characteristic mass : 0.001 g
Equivalent Weight : 0.000 g/eq.
Density : 0.000 g/cm3
Record Analogic IN 1
Cycle Definition : Charge/Discharge alternance
External device configuration :
   device type : Thermostat
   device name : Other
   Analog OUT : 
      mode : E/V
      unit : T/°C
      max : 400.000 at 5.000 V
      min : -100.000 at 0.000 V
      current : 0.000
   Analog IN 1 : 
      unit : T/°C
      max : 400.000 at 5.000 V
      min : -100.000 at 0.000 V
Mode                Single sine         
E (V)               0.0000              
vs.                 Eoc                 
tE (h:m:s)          0:00:0.0000         
record              0                   
dI                  1.000               
unit dI             mA                  
dt (s)              0.000               
fi                  1.000               
unit fi             MHz                 
ff                  1.000               
unit ff             Hz                  
Nd                  20                  
Points              per decade          
spacing             Logarithmic         
Va (mV)             128.0               
pw                  0.50                
Na                  3                   
corr                0                   
E range min (V)     -10.000             
E range max (V)     10.000              
I Range             Auto                
Bandwidth           5                   
nc cycles           0                   
goto Ns'            0                   
nr cycles           0                   
inc. cycle          1                   

freq/Hz	Re(Z)/Ohm	-Im(Z)/Ohm	|Z|/Ohm	Phase(Z)/deg	time/s	<Ewe>/V	<I>/mA	Cs/µF	Cp/µF	cycle number	I Range	|Ewe|/V	|I|/A	(Q-Qo)/mA.h	Analog OUT/V	Analog IN 1/V	Re(Y)/Ohm-1	Im(Y)/Ohm-1	|Y|/Ohm-1	Phase(Y)/deg	dq/mA.h	
1.0000186E+006	3.3193675E-001	-2.8994889E+000	2.9184272E+000	8.3469147E+001	1.802488672226900E+000	-2.5883939E-003	-1.3557172E-002	-5.4889668E-002	-5.4179598E-002	1.000000000000000E+000	9	1.2600129E-004	4.3174383E-005	-2.376715768282237E-005	0.0000000E+000	-1.0014469E+002	3.8972441E-002	-3.4042677E-001	3.4265032E-001	-8.3469147E+001	-2.376715768282237E-005
8.9124669E+005	5.8483225E-001	-3.7731066E+000	3.8181622E+000	8.1189255E+001	2.397480327199446E+000	-2.3269106E-003	2.1358090E-002	-4.7328543E-002	-4.6218149E-002	1.000000000000000E+000	9	1.6269556E-004	4.2610962E-005	-1.920676157523647E-005	0.0000000E+000	-1.0016073E+002	4.0116467E-002	-2.5881553E-001	2.6190612E-001	-8.1189255E+001	4.560396107585904E-006
7.9433269E+005	1.1646333E+000	-4.3239675E+000	4.4780650E+000	7.4925484E+001	2.992477182095172E+000	-2.1534772E-003	4.6957642E-002	-4.6337787E-002	-4.3203540E-002	1.000000000000000E+000	9	1.5074971E-004	3.3664030E-005	-1.029688627085286E-005	0.0000000E+000	-1.0011262E+002	5.8077555E-002	-2.1562625E-001	2.2331074E-001	-7.4925484E+001	8.909875304383605E-006
7.0794981E+005	4.2760410E+000	-4.1855197E+000	5.9835691E+000	4.4387077E+001	3.210600152524421E+000	-1.9931123E-003	6.9501646E-002	-5.3711623E-002	-2.6281273E-002	1.000000000000000E+000	9	4.4429613E-005	7.4252694E-006	-6.807844095866636E-006	0.0000000E+000	-1.0004044E+002	1.1943214E-001	-1.1690383E-001	1.6712433E-001	-4.4387077E+001	3.489042174986227E-006
6.3095681E+005	3.1441159E+000	-4.4271436E+000	5.4300151E+000	5.4617989E+001	3.917493972723605E+000	-1.8641418E-003	7.7792630E-002	-5.6976646E-002	-3.7874077E-002	1.000000000000000E+000	9	1.9981734E-004	3.6798672E-005	1.304341588806144E-005	0.0000000E+000	-1.0018479E+002	1.0663418E-001	-1.5014867E-001	1.8416154E-001	-5.4617989E+001	1.985125998392808E-005
5.6234225E+005	7.3031111E+000	-4.1066899E+000	8.3785639E+000	2.9349945E+001	4.816487962059909E+000	-1.5943625E-003	-1.8693629E-001	-6.8917178E-002	-1.6556639E-002	1.000000000000000E+000	10	5.7559111E-004	6.8698064E-005	-5.675369259579687E-006	0.0000000E+000	-1.0014469E+002	1.0403243E-001	-5.8499578E-002	1.1935220E-001	-2.9349945E+001	-1.871878514764113E-005
5.0120619E+005	7.2238402E+000	-3.6922138E+000	8.1127253E+000	2.7072260E+001	5.413477537076687E+000	-1.4897953E-003	-1.7485902E-001	-8.6003646E-002	-1.7813819E-002	1.000000000000000E+000	10	1.1562994E-003	1.4252910E-004	-3.352723180659167E-005	0.0000000E+000	-1.0010460E+002	1.0975760E-001	-5.6098763E-002	1.2326314E-001	-2.7072260E+001	-2.785186254701198E-005
4.4668572E+005	7.2315197E+000	-3.3127317E+000	7.9541855E+000	2.4612335E+001	6.008471672044834E+000	-1.4174614E-003	-1.6500367E-001	-1.0755529E-001	-1.8655758E-002	1.000000000000000E+000	10	1.9889199E-003	2.5004696E-004	-5.946767044438659E-005	0.0000000E+000	-1.0010460E+002	1.1429787E-001	-5.2359421E-002	1.2571998E-001	-2.4612335E+001	-2.594043863779492E-005
3.9810347E+005	7.2334666E+000	-3.0241649E+000	7.8401923E+000	2.2688808E+001	6.603480286925333E+000	-1.3681700E-003	-1.5880872E-001	-1.3219613E-001	-1.9668726E-002	1.000000000000000E+000	10	3.1278317E-003	3.9894835E-004	-8.499577216454782E-005	0.0000000E+000	-1.0010460E+002	1.1767740E-001	-4.9198516E-002	1.2754789E-001	-2.2688808E+001	-2.552810172016123E-005
3.5480997E+005	7.2097845E+000	-2.6903980E+000	7.6954036E+000	2.0463526E+001	7.198484581866069E+000	-1.3497882E-003	-1.5227881E-001	-1.6672771E-001	-2.0378774E-002	1.000000000000000E+000	10	4.6089683E-003	5.9892482E-004	-1.088816526125948E-004	0.0000000E+000	-1.0010460E+002	1.2174735E-001	-4.5431152E-002	1.2994771E-001	-2.0463526E+001	-2.388588044804702E-005
3.1622997E+005	7.1476455E+000	-2.3979199E+000	7.5391550E+000	1.8545774E+001	7.793486156821018E+000	-1.3497135E-003	-1.4871518E-001	-2.0988551E-001	-2.1232760E-002	1.000000000000000E+000	10	6.4683580E-003	8.5796858E-004	-1.319563474019944E-004	0.0000000E+000	-1.0014469E+002	1.2575279E-001	-4.2188041E-002	1.3264085E-001	-1.8545774E+001	-2.307469478939956E-005
2.8183453E+005	7.1925206E+000	-2.1755209E+000	7.5143361E+000	1.6828985E+001	8.388493891718099E+000	-1.3628381E-003	-1.4187078E-001	-2.5957486E-001	-2.1757448E-002	1.000000000000000E+000	10	8.9474618E-003	1.1907188E-003	-1.564839005899072E-004	0.0000000E+000	-1.0020885E+002	1.2737961E-001	-3.8528495E-002	1.3307896E-001	-1.6828985E+001	-2.452755318791284E-005
2.5118764E+005	7.1775761E+000	-1.9595833E+000	7.4402666E+000	1.5270442E+001	8.983481653354829E+000	-1.3406718E-003	-1.4437553E-001	-3.2333905E-001	-2.2428932E-002	1.000000000000000E+000	10	1.2123063E-002	1.6293856E-003	-1.767989205314730E-004	0.0000000E+000	-1.0008054E+002	1.2965845E-001	-3.5398651E-002	1.3440378E-001	-1.5270442E+001	-2.031501994156576E-005
2.2387173E+005	7.1469707E+000	-1.7536088E+000	7.3589630E+000	1.3785970E+001	9.578481894946890E+000	-1.3702950E-003	-1.3875933E-001	-4.0540412E-001	-2.3020796E-002	1.000000000000000E+000	10	1.6322915E-002	2.2180998E-003	-1.942010025760133E-004	0.0000000E+000	-1.0015271E+002	1.3197412E-001	-3.2381687E-002	1.3588871E-001	-1.3785970E+001	-1.740208204454032E-005
1.9954350E+005	7.1354637E+000	-1.5778548E+000	7.3078361E+000	1.2469080E+001	1.017549554994912E+001	-1.3588856E-003	-1.4315474E-001	-5.0549346E-001	-2.3565246E-002	1.000000000000000E+000	10	2.1954736E-002	3.0042732E-003	-2.218989061805446E-004	0.0000000E+000	-1.0012064E+002	1.3361174E-001	-2.9545370E-002	1.3683942E-001	-1.2469080E+001	-2.769790360453124E-005
1.7783180E+005	7.1175375E+000	-1.4150712E+000	7.2568426E+000	1.1244618E+001	1.077147835158394E+001	-1.3628749E-003	-1.4289233E-001	-6.3245904E-001	-2.4048811E-002	1.000000000000000E+000	10	2.9529758E-002	4.0692296E-003	-2.368186311199226E-004	0.0000000E+000	-1.0012865E+002	1.3515569E-001	-2.6870942E-002	1.3780098E-001	-1.1244618E+001	-1.491972493937807E-005
1.5848613E+005	7.1314120E+000	-1.2738553E+000	7.2442904E+000	1.0127700E+001	1.136748616656405E+001	-1.3669013E-003	-1.4537847E-001	-7.8833127E-001	-2.4375711E-002	1.000000000000000E+000	10	3.9654057E-002	5.4738359E-003	-2.545784722142594E-004	0.0000000E+000	-1.0017677E+002	1.3588886E-001	-2.4273278E-002	1.3803975E-001	-1.0127700E+001	-1.775984109433682E-005
1.4125594E+005	7.1316404E+000	-1.1449696E+000	7.2229667E+000	9.1208811E+000	1.196247686151764E+001	-1.3613456E-003	-1.4944819E-001	-9.8405522E-001	-2.4727268E-002	1.000000000000000E+000	10	5.2457571E-002	7.2626076E-003	-2.644904203787446E-004	0.0000000E+000	-1.0009658E+002	1.3669676E-001	-2.1946372E-002	1.3844727E-001	-9.1208811E+000	-9.911948164485166E-006
1.2590930E+005	7.1071396E+000	-1.0229795E+000	7.1803846E+000	8.1907206E+000	1.255749584976002E+001	-1.3750101E-003	-1.4582869E-001	-1.2356498E+000	-2.5080364E-002	1.000000000000000E+000	10	6.7652464E-002	9.4218440E-003	-2.698483574965762E-004	0.0000000E+000	-1.0007252E+002	1.3784768E-001	-1.9841366E-002	1.3926831E-001	-8.1907206E+000	-5.357937117831573E-006
1.1220494E+005	7.0967155E+000	-9.1541064E-001	7.1555119E+000	7.3500400E+000	1.315348017137148E+001	-1.4355427E-003	-1.5477771E-001	-1.5495021E+000	-2.5359618E-002	1.000000000000000E+000	10	8.4957682E-002	1.1873040E-002	-2.738079259117755E-004	0.0000000E+000	-1.0015271E+002	1.3860407E-001	-1.7878642E-002	1.3975240E-001	-7.3500400E+000	-3.959568415199289E-006
1.0000371E+005	7.0884829E+000	-8.1938839E-001	7.1356840E+000	6.5938020E+000	1.374848761301837E+001	-1.3893830E-003	-1.4735448E-001	-1.9422905E+000	-2.5610767E-002	1.000000000000000E+000	10	1.0372567E-001	1.4536192E-002	-3.004575733279603E-004	0.0000000E+000	-1.0014469E+002	1.3921374E-001	-1.6092317E-002	1.4014074E-001	-6.5938020E+000	-2.664964741618480E-005
8.9129305E+004	7.0899878E+000	-7.3448074E-001	7.1279302E+000	5.9144063E+000	1.420847622150905E+001	-1.3537372E-003	-1.4351352E-001	-2.4311917E+000	-2.5813872E-002	1.000000000000000E+000	10	1.2313155E-001	1.7274518E-002	-3.027709971851566E-004	0.0000000E+000	-1.0013667E+002	1.3954639E-001	-1.4456180E-002	1.4029318E-001	-5.9144063E+000	-2.313423857196292E-006
7.9433273E+004	7.0829730E+000	-6.5695381E-001	7.1133742E+000	5.2990880E+000	1.480348331641289E+001	-1.3102994E-003	-1.3853186E-001	-3.0498805E+000	-2.6013644E-002	1.000000000000000E+000	10	1.2927715E-001	1.8173816E-002	-2.845813417553177E-004	0.0000000E+000	-1.0009658E+002	1.3997945E-001	-1.2983254E-002	1.4058027E-001	-5.2990880E+000	1.818965542983882E-005
7.0794977E+004	7.0764332E+000	-5.8805400E-001	7.1008248E+000	4.7503839E+000	1.539948827805347E+001	-1.3202546E-003	-1.3896544E-001	-3.8229663E+000	-2.6219070E-002	1.000000000000000E+000	10	1.3028845E-001	1.8348355E-002	-3.076602695625690E-004	0.0000000E+000	-1.0018479E+002	1.4034496E-001	-1.1662713E-002	1.4082871E-001	-4.7503839E+000	-2.307892780725122E-005
6.3093828E+004	7.0703969E+000	-5.2607495E-001	7.0899415E+000	4.2552681E+000	1.599547155972687E+001	-1.3111943E-003	-1.3914037E-001	-4.7949672E+000	-2.6399491E-002	1.000000000000000E+000	10	1.3045488E-001	1.8399995E-002	-3.014393102349714E-004	0.0000000E+000	-1.0008054E+002	1.4065607E-001	-1.0465556E-002	1.4104488E-001	-4.2552681E+000	6.220959327597590E-006
5.6237012E+004	7.0651851E+000	-4.7078311E-001	7.0808530E+000	3.8122239E+000	1.659047022796585E+001	-1.3227341E-003	-1.4006338E-001	-6.0114193E+000	-2.6573431E-002	1.000000000000000E+000	10	1.3041045E-001	1.8417336E-002	-2.795443387090798E-004	0.0000000E+000	-1.0004044E+002	1.4091343E-001	-9.3896566E-003	1.4122592E-001	-3.8122239E+000	2.189497152589159E-005
5.0122477E+004	7.0605597E+000	-4.2098296E-001	7.0730991E+000	3.4121976E+000	1.718548356290557E+001	-1.3027304E-003	-1.3656302E-001	-7.5426345E+000	-2.6719764E-002	1.000000000000000E+000	10	1.3022317E-001	1.8411048E-002	-3.208350926571681E-004	0.0000000E+000	-1.0010460E+002	1.4113010E-001	-8.4148245E-003	1.4138074E-001	-3.4121976E+000	-4.129075394808829E-005
4.4666715E+004	7.0575109E+000	-3.7636858E-001	7.0675392E+000	3.0526235E+000	1.778047215114930E+001	-1.3006611E-003	-1.3434668E-001	-9.4672260E+000	-2.6848067E-002	1.000000000000000E+000	10	1.3022052E-001	1.8425157E-002	-3.493692689740371E-004	0.0000000E+000	-1.0009658E+002	1.4129120E-001	-7.5348900E-003	1.4149196E-001	-3.0526235E+000	-2.853417631686902E-005
3.9814063E+004	7.0544963E+000	-3.3628672E-001	7.0625072E+000	2.7292147E+000	1.837648767282371E+001	-1.2522646E-003	-1.2992331E-001	-1.1887046E+001	-2.6951043E-002	1.000000000000000E+000	10	1.2989700E-001	1.8392477E-002	-3.724042884487167E-004	0.0000000E+000	-1.0006450E+002	1.4143217E-001	-6.7420490E-003	1.4159277E-001	-2.7292147E+000	-2.303501947467965E-005
3.5480996E+004	7.0540113E+000	-3.0040723E-001	7.0604053E+000	2.4385660E+000	1.883547702795477E+001	-1.3049485E-003	-1.3911426E-001	-1.4931862E+001	-2.7031830E-002	1.000000000000000E+000	10	1.4045164E-001	1.9892858E-002	-4.043981572161946E-004	0.0000000E+000	-1.0009658E+002	1.4150666E-001	-6.0263053E-003	1.4163493E-001	-2.4385660E+000	-3.199386876747784E-005
3.1621143E+004	7.0501213E+000	-2.6832289E-001	7.0552254E+000	2.1795869E+000	1.943149470959906E+001	-1.2753442E-003	-1.3550788E-001	-1.8757927E+001	-2.7131794E-002	1.000000000000000E+000	10	1.3121685E-001	1.8598534E-002	-4.218944314569235E-004	0.0000000E+000	-1.0004044E+002	1.4163637E-001	-5.3905854E-003	1.4173892E-001	-2.1795869E+000	-1.749627424072890E-005
2.8188096E+004	7.0513411E+000	-2.3994559E-001	7.0554223E+000	1.9489295E+000	1.989048419802566E+001	-1.3087329E-003	-1.3684399E-001	-2.3531065E+001	-2.7215801E-002	1.000000000000000E+000	10	1.4007440E-001	1.9853439E-002	-4.377604915019539E-004	0.0000000E+000	-1.0011262E+002	1.4165297E-001	-4.8202188E-003	1.4173496E-001	-1.9489295E+000	-1.586606004503038E-005
2.5116910E+004	7.0481911E+000	-2.1362503E-001	7.0514278E+000	1.7360576E+000	2.048547457295354E+001	-1.2828013E-003	-1.3510405E-001	-2.9662090E+001	-2.7223999E-002	1.000000000000000E+000	10	1.3078114E-001	1.8546760E-002	-4.414996340258254E-004	0.0000000E+000	-1.0009658E+002	1.4175016E-001	-4.2963335E-003	1.4181525E-001	-1.7360576E+000	-3.739142523871556E-006
2.2389027E+004	7.0479913E+000	-1.9073941E-001	7.0505719E+000	1.5502142E+000	2.094547163482639E+001	-1.2793522E-003	-1.3459414E-001	-3.7268723E+001	-2.7275747E-002	1.000000000000000E+000	10	1.3773945E-001	1.9535925E-002	-4.670929796609821E-004	0.0000000E+000	-1.0010460E+002	1.4178056E-001	-3.8369996E-003	1.4183247E-001	-1.5502142E+000	-2.559334563515664E-005
1.9948783E+004	7.0456209E+000	-1.6954216E-001	7.0476604E+000	1.3784699E+000	2.154148491649539E+001	-1.2749716E-003	-1.3477284E-001	-4.7057194E+001	-2.7232751E-002	1.000000000000000E+000	10	1.3000536E-001	1.8446598E-002	-5.292532191020954E-004	0.0000000E+000	-1.0015271E+002	1.4184999E-001	-3.4134050E-003	1.4189106E-001	-1.3784699E+000	-6.216023944111338E-005
1.7786895E+004	7.0455513E+000	-1.5182215E-001	7.0471869E+000	1.2344559E+000	2.200147752495832E+001	-1.2757728E-003	-1.3402101E-001	-5.8936573E+001	-2.7354171E-002	1.000000000000000E+000	10	1.3522264E-001	1.9188173E-002	-5.447037094178506E-004	0.0000000E+000	-1.0007252E+002	1.4186767E-001	-3.0570573E-003	1.4190060E-001	-1.2344559E+000	-1.545049031575520E-005
1.5847686E+004	7.0468431E+000	-1.3528749E-001	7.0481415E+000	1.0998471E+000	2.246147573352209E+001	-1.2963915E-003	-1.3606055E-001	-7.4232933E+001	-2.7350338E-002	1.000000000000000E+000	10	1.3992140E-001	1.9852240E-002	-5.540301112164226E-004	0.0000000E+000	-1.0014469E+002	1.4185524E-001	-2.7233809E-003	1.4188138E-001	-1.0998471E+000	-9.326401798571992E-006
1.4121879E+004	7.0435638E+000	-1.2035772E-001	7.0445919E+000	9.7895306E-001	2.305647320175194E+001	-1.2751953E-003	-1.3405637E-001	-9.3638336E+001	-2.7333165E-002	1.000000000000000E+000	10	1.2984785E-001	1.8432274E-002	-5.642125910748211E-004	0.0000000E+000	-1.0014469E+002	1.4193214E-001	-2.4252820E-003	1.4195286E-001	-9.7895306E-001	-1.018247985839842E-005
1.2590932E+004	7.0442953E+000	-1.0727730E-001	7.0451121E+000	8.7248778E-001	2.351547874356038E+001	-1.2635248E-003	-1.3459601E-001	-1.1782961E+002	-2.7320856E-002	1.000000000000000E+000	10	1.3301526E-001	1.8880503E-002	-5.694287135152716E-004	0.0000000E+000	-1.0012064E+002	1.4192593E-001	-2.1613846E-003	1.4194238E-001	-8.7248778E-001	-5.216122440450518E-006
1.1217711E+004	7.0443640E+000	-9.5719047E-002	7.0450144E+000	7.7848899E-001	2.397447817868670E+001	-1.2673091E-003	-1.3365442E-001	-1.4822366E+002	-2.7362168E-002	1.000000000000000E+000	10	1.3570842E-001	1.9263044E-002	-5.961406955401310E-004	0.0000000E+000	-1.0008855E+002	1.4193125E-001	-1.9285664E-003	1.4194435E-001	-7.7848899E-001	-2.671198202485944E-005
1.0002229E+004	7.0455427E+000	-8.5228533E-002	7.0460582E+000	6.9306183E-001	2.443448473387980E+001	-1.2824468E-003	-1.3434477E-001	-1.8669742E+002	-2.7315922E-002	1.000000000000000E+000	10	1.3797611E-001	1.9582028E-002	-6.294257058909538E-004	0.0000000E+000	-1.0015271E+002	1.4191294E-001	-1.7166926E-003	1.4192332E-001	-6.9306183E-001	-3.328501035082282E-005
8.9149297E+003	7.0456710E+000	-7.6045550E-002	7.0460815E+000	6.1838251E-001	2.491690803683014E+001	-1.2523759E-003	-1.2941711E-001	-2.3476233E+002	-2.7345173E-002	1.000000000000000E+000	10	1.3987210E-001	1.9851048E-002	-6.402443691707449E-004	0.0000000E+000	-1.0009658E+002	1.4191458E-001	-1.5317167E-003	1.4192285E-001	-6.1838251E-001	-1.081866327979101E-005
7.9439976E+003	7.0417199E+000	-6.7452334E-002	7.0420427E+000	5.4881704E-001	2.559699401579564E+001	-1.1954231E-003	-1.2189166E-001	-2.9701886E+002	-2.7250890E-002	1.000000000000000E+000	10	1.2941468E-001	1.8377434E-002	-6.494760921361546E-004	0.0000000E+000	-1.0008855E+002	1.4199774E-001	-1.3601902E-003	1.4200425E-001	-5.4881704E-001	-9.231722965409713E-006
7.0822334E+003	7.0417781E+000	-6.0246155E-002	7.0420356E+000	4.9018389E-001	2.617387188319117E+001	-1.1872387E-003	-1.1996002E-001	-3.7301010E+002	-2.7301267E-002	1.000000000000000E+000	10	1.3058069E-001	1.8543033E-002	-6.541354755040051E-004	0.0000000E+000	-1.0003242E+002	1.4199920E-001	-1.2148786E-003	1.4200440E-001	-4.9018389E-001	-4.659383367850551E-006
6.3077344E+003	7.0413952E+000	-5.3620353E-002	7.0415993E+000	4.3629998E-001	2.680854516665568E+001	-1.1693976E-003	-1.1783117E-001	-4.7056223E+002	-2.7285619E-002	1.000000000000000E+000	10	1.3152747E-001	1.8678635E-002	-6.877035611747609E-004	0.0000000E+000	-1.0011262E+002	1.4200908E-001	-1.0814017E-003	1.4201319E-001	-4.3629998E-001	-3.356808567075574E-005
5.6210552E+003	7.0416040E+000	-4.7615059E-002	7.0417652E+000	3.8742596E-001	2.750924511995981E+001	-1.1720821E-003	-1.1775300E-001	-5.9464520E+002	-2.7188390E-002	1.000000000000000E+000	10	1.3229981E-001	1.8787876E-002	-7.150542751257825E-004	0.0000000E+000	-1.0008054E+002	1.4200661E-001	-9.6024323E-004	1.4200985E-001	-3.8742596E-001	-2.735071395102166E-005
5.0116035E+003	7.0422421E+000	-4.2539135E-002	7.0423703E+000	3.4609479E-001	2.826969811609160E+001	-1.1609523E-003	-1.1690443E-001	-7.4654291E+002	-2.7239200E-002	1.000000000000000E+000	10	1.3291991E-001	1.8874314E-002	-7.551997863937997E-004	0.0000000E+000	-1.0011262E+002	1.4199506E-001	-8.5773069E-004	1.4199765E-001	-3.4609479E-001	-4.014551126801718E-005
4.4664292E+003	7.0428610E+000	-3.7877697E-002	7.0429630E+000	3.0814344E-001	2.902968716552277E+001	-1.1569627E-003	-1.1673322E-001	-9.4075409E+002	-2.7210243E-002	1.000000000000000E+000	10	1.3343371E-001	1.8945679E-002	-7.949067852506414E-004	0.0000000E+000	-1.0014469E+002	1.4198364E-001	-7.6361210E-004	1.4198570E-001	-3.0814344E-001	-3.970699885684167E-005
