EC-Lab ASCII FILE
Nb header lines : 75                          

Potentio Electrochemical Impedance Spectroscopy

Run on channel : 1 (SN 20909)
User : 
CE vs. WE compliance from -10 V to 10 V
Electrode connection : standard
Ewe ctrl range : min = -10.00 V, max = 10.00 V
Safety Limits :
	Do not start on E overload
Acquisition started on : 01/24/2020 09:52:24
Technique started on : 01/24/2020 09:52:25
Saved on :
	File : DE_40_5_60.mpr
	Directory : P:\Chemistry\Data\VMP3\Kyler\DOE\DE_40\2ND 60C\
	Host : 10.0.4.99
Device : VMP3 (SN 0183)
Address : USB
EC-Lab for windows v11.33 (software)
Internet server v11.32 (firmware)
Command interpretor v11.33 (firmware)
Electrode material : 
Initial state : 
Electrolyte : 
Comments : 
Electrode surface area : 0.001 cm²
Characteristic mass : 0.001 g
Equivalent Weight : 0.000 g/eq.
Density : 0.000 g/cm3
Record Analogic IN 1
Cycle Definition : Charge/Discharge alternance
External device configuration :
   device type : Thermostat
   device name : Other
   Analog OUT : 
      mode : E/V
      unit : T/°C
      max : 400.000 at 5.000 V
      min : -100.000 at 0.000 V
      current : 0.000
   Analog IN 1 : 
      unit : T/°C
      max : 400.000 at 5.000 V
      min : -100.000 at 0.000 V
Mode                Single sine         
E (V)               0.0000              
vs.                 Eoc                 
tE (h:m:s)          0:00:0.0000         
record              0                   
dI                  1.000               
unit dI             mA                  
dt (s)              0.000               
fi                  1.000               
unit fi             MHz                 
ff                  1.000               
unit ff             Hz                  
Nd                  20                  
Points              per decade          
spacing             Logarithmic         
Va (mV)             128.0               
pw                  0.50                
Na                  3                   
corr                0                   
E range min (V)     -10.000             
E range max (V)     10.000              
I Range             Auto                
Bandwidth           5                   
nc cycles           0                   
goto Ns'            0                   
nr cycles           0                   
inc. cycle          1                   

freq/Hz	Re(Z)/Ohm	-Im(Z)/Ohm	|Z|/Ohm	Phase(Z)/deg	time/s	<Ewe>/V	<I>/mA	Cs/µF	Cp/µF	cycle number	I Range	|Ewe|/V	|I|/A	(Q-Qo)/mA.h	Analog OUT/V	Analog IN 1/V	Re(Y)/Ohm-1	Im(Y)/Ohm-1	|Y|/Ohm-1	Phase(Y)/deg	dq/mA.h	
1.0000186E+006	5.6862843E+001	6.1688557E+001	8.3897919E+001	-4.7330978E+001	1.850481341214618E+000	-1.9084888E-002	3.1108933E-003	2.5799272E-003	1.3948076E-003	1.000000000000000E+000	11	2.0169229E-003	2.4040202E-005	8.074783344287021E-007	0.0000000E+000	-1.0005396E+002	8.0784149E-003	8.7639978E-003	1.1919247E-002	4.7330978E+001	8.074783344287021E-007
8.9124669E+005	6.3966206E+001	5.8204247E+001	8.6483582E+001	-4.2299744E+001	2.447491982864449E+000	-1.8571723E-002	3.1187322E-003	3.0680860E-003	1.3896632E-003	1.000000000000000E+000	11	3.1898534E-003	3.6883917E-005	1.326072219570859E-006	0.0000000E+000	-1.0006999E+002	8.5523063E-003	7.7819303E-003	1.1562889E-002	4.2299744E+001	5.185938851421573E-007
7.9433269E+005	7.0763611E+001	5.5586605E+001	8.9985329E+001	-3.8150532E+001	3.043487451184774E+000	-1.8132588E-002	3.0524780E-003	3.6045208E-003	1.3754488E-003	1.000000000000000E+000	11	4.9015293E-003	5.4470318E-005	1.735351093241964E-006	0.0000000E+000	-1.0006999E+002	8.7390970E-003	6.8647820E-003	1.1112923E-002	3.8150532E+001	4.092788736711050E-007
7.0794981E+005	7.7040985E+001	5.3435379E+001	9.3758484E+001	-3.4745052E+001	3.639488812856143E+000	-1.7704904E-002	3.0593846E-003	4.2071575E-003	1.3665495E-003	1.000000000000000E+000	11	7.2289226E-003	7.7101533E-005	2.203019899055815E-006	0.0000000E+000	-1.0008604E+002	8.7639662E-003	6.0786586E-003	1.0665702E-002	3.4745052E+001	4.676688058138502E-007
6.3095681E+005	8.3068130E+001	5.1515491E+001	9.7745384E+001	-3.1805513E+001	4.234492867748486E+000	-1.7293461E-002	3.2503100E-003	4.8964648E-003	1.3600843E-003	1.000000000000000E+000	11	1.0245653E-002	1.0481981E-004	2.714947034852028E-006	0.0000000E+000	-1.0006197E+002	8.6944466E-003	5.3919433E-003	1.0230662E-002	3.1805513E+001	5.119271357962131E-007
5.6234225E+005	8.8546623E+001	4.9496132E+001	1.0144147E+002	-2.9204485E+001	4.829477962717647E+000	-1.6977569E-002	3.0647982E-003	5.7180529E-003	1.3613182E-003	1.000000000000000E+000	11	1.3974044E-002	1.3775475E-004	3.285442745905635E-006	0.0000000E+000	-1.0011812E+002	8.6048031E-003	4.8099458E-003	9.8579014E-003	2.9204485E+001	5.704957110536071E-007
5.0120619E+005	9.3674294E+001	4.7390209E+001	1.0497955E+002	-2.6835037E+001	5.426493004400982E+000	-1.6671021E-002	3.1678204E-003	6.7006219E-003	1.3654726E-003	1.000000000000000E+000	11	1.8431980E-002	1.7557688E-004	3.747150916674905E-006	0.0000000E+000	-1.0005396E+002	8.4998459E-003	4.3001072E-003	9.5256651E-003	2.6835037E+001	4.617081707692706E-007
4.4668572E+005	9.8271843E+001	4.5118546E+001	1.0813435E+002	-2.4660791E+001	6.021473645960214E+000	-1.6416479E-002	3.2409818E-003	7.8970147E-003	1.3748198E-003	1.000000000000000E+000	11	2.3615168E-002	2.1838729E-004	4.011371475835202E-006	0.0000000E+000	-1.0008604E+002	8.4043033E-003	3.8585819E-003	9.2477547E-003	2.4660791E+001	2.642205591602964E-007
3.9810347E+005	1.0246886E+002	4.2635323E+001	1.1098486E+002	-2.2591255E+001	6.616481700883014E+000	-1.6272593E-002	3.0840251E-003	9.3767997E-003	1.3837776E-003	1.000000000000000E+000	11	2.9537752E-002	2.6614219E-004	4.428476313364197E-006	0.0000000E+000	-1.0006197E+002	8.3188731E-003	3.4613230E-003	9.0102386E-003	2.2591255E+001	4.171048375289952E-007
3.5480997E+005	1.0611633E+002	3.9985653E+001	1.1339986E+002	-2.0646891E+001	7.211488689150428E+000	-1.6162051E-002	3.0707759E-003	1.1218121E-002	1.3947728E-003	1.000000000000000E+000	11	3.6241852E-002	3.1959344E-004	5.169524307074931E-006	0.0000000E+000	-1.0007802E+002	8.2519613E-003	3.1094181E-003	8.8183526E-003	2.0646891E+001	7.410479937107336E-007
3.1622997E+005	1.0930849E+002	3.7307446E+001	1.1549975E+002	-1.8844988E+001	7.807490690815030E+000	-1.6097007E-002	3.0898149E-003	1.3490299E-002	1.4075070E-003	1.000000000000000E+000	11	4.3807507E-002	3.7928659E-004	6.214094046134657E-006	0.0000000E+000	-1.0006197E+002	8.1939222E-003	2.7966199E-003	8.6580273E-003	1.8844988E+001	1.044569739059727E-006
2.8183453E+005	1.1201779E+002	3.4581570E+001	1.1723425E+002	-1.7156242E+001	8.402481572382385E+000	-1.6065698E-002	3.0198290E-003	1.6329814E-002	1.4208937E-003	1.000000000000000E+000	11	5.2283216E-002	4.4597220E-004	5.943712995877528E-006	0.0000000E+000	-1.0006999E+002	8.1503820E-003	2.5161454E-003	8.5299304E-003	1.7156242E+001	-2.703810502571292E-007
2.5118764E+005	1.1427356E+002	3.1934153E+001	1.1865174E+002	-1.5613210E+001	8.997482107341057E+000	-1.6008206E-002	3.1284494E-003	1.9841133E-002	1.4372391E-003	1.000000000000000E+000	11	6.1724439E-002	5.2021520E-004	6.519448085008965E-006	0.0000000E+000	-1.0009406E+002	8.1170360E-003	2.2683346E-003	8.4280260E-003	1.5613210E+001	5.757350891314375E-007
2.2387173E+005	1.1610520E+002	2.9397146E+001	1.1976899E+002	-1.4208354E+001	9.593490002298495E+000	-1.5980776E-002	3.0588373E-003	2.4183307E-002	1.4569252E-003	1.000000000000000E+000	11	7.2134957E-002	6.0228410E-004	6.418981818369099E-006	0.0000000E+000	-1.0007802E+002	8.0939950E-003	2.0493513E-003	8.3494065E-003	1.4208354E+001	-1.004662666398669E-007
1.9954350E+005	1.1763333E+002	2.7066214E+001	1.2070700E+002	-1.2957644E+001	1.019047301731189E+001	-1.5951928E-002	3.0202090E-003	2.9468298E-002	1.4816484E-003	1.000000000000000E+000	11	8.3511718E-002	6.9185480E-004	6.931899399061675E-006	0.0000000E+000	-1.0014217E+002	8.0735674E-003	1.8576446E-003	8.2845241E-003	1.2957644E+001	5.129175806925761E-007
1.7783180E+005	1.1886266E+002	2.4939262E+001	1.2145081E+002	-1.1849669E+001	1.078647459231433E+001	-1.5912114E-002	3.1432039E-003	3.5886168E-002	1.5131900E-003	1.000000000000000E+000	11	9.5819227E-002	7.8895502E-004	6.107636937978289E-006	0.0000000E+000	-1.0005396E+002	8.0583217E-003	1.6907630E-003	8.2337856E-003	1.1849669E+001	-8.242624610833853E-007
1.5848613E+005	1.1988663E+002	2.3027571E+001	1.2207815E+002	-1.0872828E+001	1.138247971396777E+001	-1.5892440E-002	3.0399985E-003	4.3609466E-002	1.5516764E-003	1.000000000000000E+000	11	1.0902464E-001	8.9307252E-004	5.834951984893350E-006	0.0000000E+000	-1.0007802E+002	8.0444226E-003	1.5451557E-003	8.1914738E-003	1.0872828E+001	-2.726849530849395E-007
1.4125594E+005	1.2076284E+002	2.1341320E+001	1.2263407E+002	-1.0021889E+001	1.184149720243295E+001	-1.5859229E-002	3.2604092E-003	5.2794918E-002	1.5988672E-003	1.000000000000000E+000	11	1.2321672E-001	1.0047511E-003	6.463603730025675E-006	0.0000000E+000	-1.0005396E+002	8.0299163E-003	1.4190542E-003	8.1543410E-003	1.0021889E+001	6.286517451323254E-007
1.2590930E+005	1.2148752E+002	1.9850996E+001	1.2309866E+002	-9.2800894E+000	1.230148943761014E+001	-1.5854586E-002	3.1463800E-003	6.3676625E-002	1.6559149E-003	1.000000000000000E+000	11	1.3842458E-001	1.1245011E-003	7.254142130825333E-006	0.0000000E+000	-1.0004594E+002	8.0172429E-003	1.3100132E-003	8.1235655E-003	9.2800894E+000	7.905384007996574E-007
1.1220494E+005	1.2210448E+002	1.8542553E+001	1.2350437E+002	-8.6348553E+000	1.289648557253531E+001	-1.5745534E-002	3.3996392E-003	7.6495983E-002	1.7243008E-003	1.000000000000000E+000	11	1.3043599E-001	1.0561245E-003	8.412380173356117E-006	0.0000000E+000	-1.0003791E+002	8.0051031E-003	1.2156396E-003	8.0968793E-003	8.6348553E+000	1.158238042530785E-006
1.0000371E+005	1.2261892E+002	1.7415495E+001	1.2384950E+002	-8.0836210E+000	1.349349421422812E+001	-1.5723437E-002	3.2318565E-003	9.1383584E-002	1.8069714E-003	1.000000000000000E+000	11	1.2971929E-001	1.0473945E-003	8.503390944585489E-006	0.0000000E+000	-1.0005396E+002	7.9940893E-003	1.1353960E-003	8.0743162E-003	8.0836210E+000	9.101077122937214E-008
8.9129305E+004	1.2304677E+002	1.6444475E+001	1.2414076E+002	-7.6121373E+000	1.408847608245560E+001	-1.5691344E-002	3.0989745E-003	1.0858744E-001	1.9054204E-003	1.000000000000000E+000	11	1.2945209E-001	1.0427848E-003	8.963658800206354E-006	0.0000000E+000	-1.0004594E+002	7.9843840E-003	1.0670659E-003	8.0553722E-003	7.6121373E+000	4.602678556208646E-007
7.9433273E+004	1.2340788E+002	1.5661393E+001	1.2439768E+002	-7.2326050E+000	1.468348237741156E+001	-1.5652351E-002	3.1019610E-003	1.2793438E-001	2.0277924E-003	1.000000000000000E+000	11	1.2957460E-001	1.0416158E-003	1.035052727505293E-005	0.0000000E+000	-1.0008604E+002	7.9747727E-003	1.0120589E-003	8.0387350E-003	7.2326050E+000	1.386868474846576E-006
7.0794977E+004	1.2370309E+002	1.5043037E+001	1.2461440E+002	-6.9334669E+000	1.527948504572851E+001	-1.5641367E-002	3.1131590E-003	1.4944525E-001	2.1777940E-003	1.000000000000000E+000	11	1.2948300E-001	1.0390694E-003	1.246142495685490E-005	0.0000000E+000	-1.0007802E+002	7.9660695E-003	9.6872187E-004	8.0247549E-003	6.9334669E+000	2.110897681801968E-006
6.3093828E+004	1.2395555E+002	1.4582212E+001	1.2481033E+002	-6.7094750E+000	1.587649198071449E+001	-1.5610115E-002	3.2131933E-003	1.7298554E-001	2.3613239E-003	1.000000000000000E+000	11	1.2944883E-001	1.0371644E-003	1.311335871669386E-005	0.0000000E+000	-1.0006999E+002	7.9572843E-003	9.3610014E-004	8.0121569E-003	6.7094750E+000	6.519337598389639E-007
5.6237012E+004	1.2417142E+002	1.4300367E+001	1.2499217E+002	-6.5696020E+000	1.647248174235574E+001	-1.5601966E-002	3.0737792E-003	1.9790223E-001	2.5904754E-003	1.000000000000000E+000	11	1.2925939E-001	1.0341399E-003	1.396681410631896E-005	0.0000000E+000	-1.0014217E+002	7.9479674E-003	9.1533823E-004	8.0005014E-003	6.5696020E+000	8.534553896250945E-007
5.0122477E+004	1.2437144E+002	1.4175097E+001	1.2517663E+002	-6.5021648E+000	1.693249720419408E+001	-1.5596595E-002	3.1228648E-003	2.2400701E-001	2.8725469E-003	1.000000000000000E+000	11	1.4037499E-001	1.1214153E-003	1.402669409042897E-005	0.0000000E+000	-1.0008604E+002	7.9373252E-003	9.0464775E-004	7.9887118E-003	6.5021648E+000	5.987998411001208E-008
4.4666715E+004	1.2454088E+002	1.4213685E+001	1.2534935E+002	-6.5109196E+000	1.752949656589772E+001	-1.5557099E-002	3.1786661E-003	2.5068560E-001	3.2232844E-003	1.000000000000000E+000	11	1.3043272E-001	1.0405537E-003	1.298424827588800E-005	0.0000000E+000	-1.0005396E+002	7.9262499E-003	9.0461230E-004	7.9777036E-003	6.5109196E+000	-1.042445814540972E-006
3.9814063E+004	1.2470530E+002	1.4423618E+001	1.2553666E+002	-6.5976076E+000	1.798849610771867E+001	-1.5578077E-002	3.0916964E-003	2.7714652E-001	3.6586153E-003	1.000000000000000E+000	11	1.3995363E-001	1.1148427E-003	1.339977525381740E-005	0.0000000E+000	-1.0009406E+002	7.9130474E-003	9.1523596E-004	7.9658004E-003	6.5976076E+000	4.155269779294031E-007
3.5480996E+004	1.2485240E+002	1.4805266E+001	1.2572716E+002	-6.7626767E+000	1.858447858932777E+001	-1.5562731E-002	3.0388793E-003	3.0297592E-001	4.2012869E-003	1.000000000000000E+000	11	1.3012306E-001	1.0349639E-003	1.174385635612149E-005	0.0000000E+000	-1.0009406E+002	7.8983931E-003	9.3660841E-004	7.9537313E-003	6.7626767E+000	-1.655918897695907E-006
3.1621143E+004	1.2501526E+002	1.5358125E+001	1.2595510E+002	-7.0036936E+000	1.904447495788918E+001	-1.5550684E-002	3.0969225E-003	3.2772109E-001	4.8724706E-003	1.000000000000000E+000	11	1.3783488E-001	1.0943175E-003	1.294576061094995E-005	0.0000000E+000	-1.0007802E+002	7.8800954E-003	9.6806977E-004	7.9393368E-003	7.0036936E+000	1.201904254828453E-006
2.8188096E+004	1.2516031E+002	1.6086355E+001	1.2618983E+002	-7.3238463E+000	1.964047858616686E+001	-1.5541882E-002	3.0614610E-003	3.5099161E-001	5.7037869E-003	1.000000000000000E+000	11	1.2966023E-001	1.0275014E-003	1.466133947840556E-005	0.0000000E+000	-1.0005396E+002	7.8599164E-003	1.0102036E-003	7.9245688E-003	7.3238463E+000	1.715578867455609E-006
2.5116910E+004	1.2534182E+002	1.7003483E+001	1.2648988E+002	-7.7254086E+000	2.010048690138501E+001	-1.5533173E-002	3.0573560E-003	3.7266278E-001	6.7341099E-003	1.000000000000000E+000	11	1.3558768E-001	1.0719250E-003	1.589726887774628E-005	0.0000000E+000	-1.0007802E+002	7.8340154E-003	1.0627384E-003	7.9057710E-003	7.7254086E+000	1.235929399340722E-006
2.2389027E+004	1.2553304E+002	1.8112877E+001	1.2683304E+002	-8.2104130E+000	2.069549244959489E+001	-1.5529967E-002	3.0836705E-003	3.9246187E-001	8.0040088E-003	1.000000000000000E+000	11	1.2926485E-001	1.0191733E-003	1.546582243951788E-005	0.0000000E+000	-1.0004594E+002	7.8035686E-003	1.1259591E-003	7.8843813E-003	8.2104130E+000	-4.314464382283990E-007
1.9948783E+004	1.2574995E+002	1.9452578E+001	1.2724564E+002	-8.7935276E+000	2.115449185806210E+001	-1.5520419E-002	3.1433932E-003	4.1013473E-001	9.5850648E-003	1.000000000000000E+000	11	1.3356949E-001	1.0496980E-003	1.635822074392733E-005	0.0000000E+000	-1.0006197E+002	7.7664405E-003	1.2014102E-003	7.8588156E-003	8.7935276E+000	8.923983044094514E-007
1.7786895E+004	1.2601228E+002	2.0998524E+001	1.2774989E+002	-9.4607630E+000	2.161349526655977E+001	-1.5523999E-002	3.1260373E-003	4.2611933E-001	1.1512980E-002	1.000000000000000E+000	11	1.3728666E-001	1.0746520E-003	1.566124354029954E-005	0.0000000E+000	-1.0008604E+002	7.7213254E-003	1.2866716E-003	7.8277960E-003	9.4607630E+000	-6.969772036277919E-007
1.5847686E+004	1.2630087E+002	2.2790010E+001	1.2834055E+002	-1.0228514E+001	2.207248931503273E+001	-1.5527169E-002	3.0855369E-003	4.4066623E-001	1.3895400E-002	1.000000000000000E+000	11	1.4046186E-001	1.0944465E-003	1.548892191203130E-005	0.0000000E+000	-1.0008604E+002	7.6679378E-003	1.3836197E-003	7.7917697E-003	1.0228514E+001	-1.723216282682394E-007
1.4121879E+004	1.2662479E+002	2.4846077E+001	1.2903940E+002	-1.1101429E+001	2.266749736995553E+001	-1.5511431E-002	3.1381655E-003	4.5359662E-001	1.6816702E-002	1.000000000000000E+000	11	1.2951931E-001	1.0037192E-003	1.560608350387904E-005	0.0000000E+000	-1.0008604E+002	7.6045599E-003	1.4921523E-003	7.7495710E-003	1.1101429E+001	1.171615918477373E-007
1.2590932E+004	1.2701842E+002	2.7161430E+001	1.2989005E+002	-1.2070256E+001	2.312647947177175E+001	-1.5518218E-002	3.0924408E-003	4.6538204E-001	2.0349942E-002	1.000000000000000E+000	11	1.3149139E-001	1.0123284E-003	1.671012530475208E-005	0.0000000E+000	-1.0002187E+002	7.5286133E-003	1.6099074E-003	7.6988195E-003	1.2070256E+001	1.104041800873047E-006
1.1217711E+004	1.2747419E+002	2.9789686E+001	1.3090872E+002	-1.3153505E+001	2.358547738686320E+001	-1.5513146E-002	3.0491424E-003	4.7626641E-001	2.4662931E-002	1.000000000000000E+000	11	1.3310614E-001	1.0167859E-003	1.727112752646725E-005	0.0000000E+000	-1.0013416E+002	7.4384948E-003	1.7383161E-003	7.6389103E-003	1.3153505E+001	5.610022217151691E-007
1.0002229E+004	1.2801424E+002	3.2731117E+001	1.3213240E+002	-1.4342311E+001	2.404547594205360E+001	-1.5507254E-002	3.0999065E-003	4.8614123E-001	2.9830839E-002	1.000000000000000E+000	11	1.3438793E-001	1.0170701E-003	1.719364234921522E-005	0.0000000E+000	-1.0001385E+002	7.3322901E-003	1.8747448E-003	7.5681666E-003	1.4342311E+001	-7.748517725202832E-008
8.9149297E+003	1.2863194E+002	3.6030426E+001	1.3358281E+002	-1.5647815E+001	2.452791161835194E+001	-1.5487151E-002	3.1919151E-003	4.9548760E-001	3.6047108E-002	1.000000000000000E+000	11	1.3538626E-001	1.0135006E-003	1.710567700243943E-005	0.0000000E+000	-1.0006197E+002	7.2085457E-003	2.0191483E-003	7.4859932E-003	1.5647815E+001	-8.796534677579421E-008
7.9439976E+003	1.2936478E+002	3.9717815E+001	1.3532462E+002	-1.7067631E+001	2.505398249666905E+001	-1.5485696E-002	3.2695550E-003	5.0442392E-001	4.3452300E-002	1.000000000000000E+000	11	1.3616198E-001	1.0061879E-003	1.760619695474290E-005	0.0000000E+000	-1.0006999E+002	7.0641912E-003	2.1688612E-003	7.3896386E-003	1.7067631E+001	5.005199523034708E-007
7.0822334E+003	1.3020238E+002	4.3800385E+001	1.3737224E+002	-1.8593061E+001	2.563088876407710E+001	-1.5476615E-002	3.2876560E-003	5.1306450E-001	5.2159075E-002	1.000000000000000E+000	11	1.3672656E-001	9.9529978E-004	1.730224761302816E-005	0.0000000E+000	-1.0006197E+002	6.8995529E-003	2.3210258E-003	7.2794911E-003	1.8593061E+001	-3.039493417147441E-007
6.3077344E+003	1.3118541E+002	4.8378296E+001	1.3982156E+002	-2.0242867E+001	2.626555484751589E+001	-1.5464531E-002	3.1788514E-003	5.2155024E-001	6.2438000E-002	1.000000000000000E+000	11	1.3714868E-001	9.8088360E-004	1.861432896617205E-005	0.0000000E+000	-1.0005396E+002	6.7102266E-003	2.4745842E-003	7.1519725E-003	2.0242867E+001	1.312081353143894E-006
5.6210552E+003	1.3230478E+002	5.3411232E+001	1.4267906E+002	-2.1983852E+001	2.696625781411421E+001	-1.5462779E-002	3.1728800E-003	5.3011447E-001	7.4287266E-002	1.000000000000000E+000	11	1.3741381E-001	9.6309726E-004	1.869879581428055E-005	0.0000000E+000	-1.0006197E+002	6.4991275E-003	2.6236875E-003	7.0087370E-003	2.1983852E+001	8.446684810850218E-008
5.0116035E+003	1.3359711E+002	5.8944305E+001	1.4602266E+002	-2.3807526E+001	2.772668195697042E+001	-1.5473184E-002	3.0791913E-003	5.3876770E-001	8.7789945E-002	1.000000000000000E+000	11	1.3757044E-001	9.4211707E-004	1.994631080031266E-005	0.0000000E+000	-1.0007802E+002	6.2655117E-003	2.7644031E-003	6.8482524E-003	2.3807526E+001	1.247514986032104E-006
4.4664292E+003	1.3508623E+002	6.5054169E+001	1.4993443E+002	-2.5714310E+001	2.848671103306697E+001	-1.5453212E-002	3.1949033E-003	5.4775274E-001	1.0311742E-001	1.000000000000000E+000	11	1.3764243E-001	9.1801747E-004	2.049501917003525E-005	0.0000000E+000	-1.0008604E+002	6.0090846E-003	2.8938255E-003	6.6695819E-003	2.5714310E+001	5.487083697225891E-007
3.9812742E+003	1.3680214E+002	7.1774208E+001	1.5448741E+002	-2.7684069E+001	2.924670562916435E+001	-1.5464550E-002	3.0831099E-003	5.5696720E-001	1.2022097E-001	1.000000000000000E+000	11	1.3763882E-001	8.9093874E-004	2.191105366265725E-005	0.0000000E+000	-1.0004594E+002	5.7320064E-003	3.0073379E-003	6.4730193E-003	2.7684069E+001	1.416034492622000E-006
