EC-Lab ASCII FILE
Nb header lines : 75                          

Potentio Electrochemical Impedance Spectroscopy

Run on channel : 2 (SN 20919)
User : 
CE vs. WE compliance from -10 V to 10 V
Electrode connection : standard
Ewe ctrl range : min = -10.00 V, max = 10.00 V
Safety Limits :
	Do not start on E overload
Acquisition started on : 01/22/2020 09:35:57
Technique started on : 01/22/2020 09:35:58
Saved on :
	File : DE_49_2_30.mpr
	Directory : P:\Chemistry\Data\VMP3\Kyler\DOE\DE_49\30C\
	Host : 10.0.4.99
Device : VMP3 (SN 0183)
Address : USB
EC-Lab for windows v11.33 (software)
Internet server v11.32 (firmware)
Command interpretor v11.33 (firmware)
Electrode material : 
Initial state : 
Electrolyte : 
Comments : 
Electrode surface area : 0.001 cm²
Characteristic mass : 0.001 g
Equivalent Weight : 0.000 g/eq.
Density : 0.000 g/cm3
Record Analogic IN 1
Cycle Definition : Charge/Discharge alternance
External device configuration :
   device type : Thermostat
   device name : Other
   Analog OUT : 
      mode : E/V
      unit : T/°C
      max : 400.000 at 5.000 V
      min : -100.000 at 0.000 V
      current : 0.000
   Analog IN 1 : 
      unit : T/°C
      max : 400.000 at 5.000 V
      min : -100.000 at 0.000 V
Mode                Single sine         
E (V)               0.0000              
vs.                 Eoc                 
tE (h:m:s)          0:00:0.0000         
record              0                   
dI                  1.000               
unit dI             mA                  
dt (s)              0.000               
fi                  1.000               
unit fi             MHz                 
ff                  1.000               
unit ff             Hz                  
Nd                  20                  
Points              per decade          
spacing             Logarithmic         
Va (mV)             128.0               
pw                  0.50                
Na                  3                   
corr                0                   
E range min (V)     -10.000             
E range max (V)     10.000              
I Range             Auto                
Bandwidth           5                   
nc cycles           0                   
goto Ns'            0                   
nr cycles           0                   
inc. cycle          1                   

freq/Hz	Re(Z)/Ohm	-Im(Z)/Ohm	|Z|/Ohm	Phase(Z)/deg	time/s	<Ewe>/V	<I>/mA	Cs/µF	Cp/µF	cycle number	I Range	|Ewe|/V	|I|/A	(Q-Qo)/mA.h	Analog OUT/V	Analog IN 1/V	Re(Y)/Ohm-1	Im(Y)/Ohm-1	|Y|/Ohm-1	Phase(Y)/deg	dq/mA.h	
1.0000186E+006	-1.3076125E+000	-2.3872316E+000	2.7218974E+000	1.1871185E+002	1.801489525561919E+000	-3.5504221E-003	-9.7164822E-001	-6.6668011E-002	-5.1281784E-002	1.000000000000000E+000	9	1.6009762E-004	5.8818394E-005	-2.768886374035889E-004	0.0000000E+000	-1.0011788E+002	-1.7649631E-001	-3.2221892E-001	3.6739078E-001	-1.1871185E+002	-2.768886374035889E-004
8.9124669E+005	-1.3063561E+000	-3.1750343E+000	3.4332795E+000	1.1236453E+002	2.396496193803614E+000	-3.1216054E-003	-8.2900506E-001	-5.6243684E-002	-4.8100799E-002	1.000000000000000E+000	9	2.8708368E-004	8.3617917E-005	-4.096099239151032E-004	0.0000000E+000	-1.0008581E+002	-1.1082640E-001	-2.6935813E-001	2.9126671E-001	-1.1236453E+002	-1.327212865115144E-004
7.9433269E+005	-8.6798787E-001	-4.0462565E+000	4.1383080E+000	1.0210738E+002	2.992487608775264E+000	-2.7890776E-003	-7.1606213E-001	-4.9518134E-002	-4.7339696E-002	1.000000000000000E+000	9	4.7630447E-004	1.1509642E-004	-5.249741568847094E-004	0.0000000E+000	-1.0007779E+002	-5.0683651E-002	-2.3626956E-001	2.4164465E-001	-1.0210738E+002	-1.153642329696062E-004
7.0794981E+005	7.7933699E-002	-4.4907484E+000	4.4914246E+000	8.9005775E+001	3.587491743703140E+000	-2.4788834E-003	-6.1543214E-001	-5.0060932E-002	-5.0045859E-002	1.000000000000000E+000	9	7.4809318E-004	1.6656033E-004	-6.243455324701693E-004	0.0000000E+000	-1.0010184E+002	3.8632778E-003	-2.2261299E-001	2.2264650E-001	-8.9005775E+001	-9.937137558545988E-005
6.3095681E+005	9.2207319E-001	-4.5976176E+000	4.6891689E+000	7.8659515E+001	4.183481638698140E+000	-2.2405568E-003	-5.3340203E-001	-5.4864023E-002	-5.2742608E-002	1.000000000000000E+000	9	1.0940385E-003	2.3331180E-004	-7.094878986611988E-004	0.0000000E+000	-1.0008581E+002	4.1934721E-002	-2.0909375E-001	2.1325740E-001	-7.8659515E+001	-8.514236619102950E-005
5.6234225E+005	1.5792298E+000	-4.2507300E+000	4.5346084E+000	6.9618980E+001	4.779485320294043E+000	-2.0422181E-003	-4.6784511E-001	-6.6581853E-002	-5.8506399E-002	1.000000000000000E+000	9	1.5196544E-003	3.3512362E-004	-7.851046281030091E-004	0.0000000E+000	-1.0010986E+002	7.6800793E-002	-2.0672069E-001	2.2052620E-001	-6.9618980E+001	-7.561672944181026E-005
5.0120619E+005	2.0624359E+000	-3.8880682E+000	4.4012175E+000	6.2056168E+001	5.376483455329435E+000	-1.8783686E-003	-4.2148516E-001	-8.1671372E-002	-6.3737050E-002	1.000000000000000E+000	9	2.0357301E-003	4.6253795E-004	-8.513484178771970E-004	0.0000000E+000	-1.0005373E+002	1.0647186E-001	-2.0071888E-001	2.2720987E-001	-6.2056168E+001	-6.624378977418790E-005
4.4668572E+005	2.3522348E+000	-3.5095072E+000	4.2248845E+000	5.6168171E+001	5.972483190329513E+000	-1.7565392E-003	-3.6967766E-001	-1.0152475E-001	-7.0054255E-002	1.000000000000000E+000	9	2.6515303E-003	6.2759832E-004	-9.103318779642674E-004	0.0000000E+000	-1.0011788E+002	1.3178045E-001	-1.9661492E-001	2.3669286E-001	-5.6168171E+001	-5.898346008707041E-005
3.9810347E+005	2.5965109E+000	-3.1454606E+000	4.0786996E+000	5.0461052E+001	6.568496098596370E+000	-1.7054211E-003	-3.5370821E-001	-1.2709835E-001	-7.5590111E-002	1.000000000000000E+000	9	3.3954231E-003	8.3247689E-004	-9.647179747561070E-004	0.0000000E+000	-1.0008581E+002	1.5607980E-001	-1.8907791E-001	2.4517618E-001	-5.0461052E+001	-5.438609679183964E-005
3.5480997E+005	2.7481322E+000	-2.8117826E+000	3.9317112E+000	4.5655899E+001	7.163480046874611E+000	-1.6833670E-003	-3.4717861E-001	-1.5953009E-001	-8.1591107E-002	1.000000000000000E+000	9	4.2915810E-003	1.0915301E-003	-1.021026458663431E-003	0.0000000E+000	-1.0013391E+002	1.7777652E-001	-1.8189406E-001	2.5434217E-001	-4.5655899E+001	-5.630848390732396E-005
3.1622997E+005	2.8459852E+000	-2.4883058E+000	3.7803833E+000	4.1163898E+001	7.758477808471071E+000	-1.6976845E-003	-3.5378280E-001	-2.0226155E-001	-8.7629266E-002	1.000000000000000E+000	9	5.3758994E-003	1.4220513E-003	-1.077992678836586E-003	0.0000000E+000	-1.0010986E+002	1.9914113E-001	-1.7411336E-001	2.6452345E-001	-4.1163898E+001	-5.696622017315541E-005
2.8183453E+005	2.9208035E+000	-2.2149019E+000	3.6656356E+000	3.7173748E+001	8.353480343386764E+000	-1.7137171E-003	-3.6260706E-001	-2.5495964E-001	-9.3085460E-002	1.000000000000000E+000	9	6.7202239E-003	1.8333038E-003	-1.133735522735062E-003	0.0000000E+000	-1.0004572E+002	2.1737209E-001	-1.6483748E-001	2.7280399E-001	-3.7173748E+001	-5.574284389847552E-005
2.5118764E+005	2.9728849E+000	-1.9613099E+000	3.5615699E+000	3.3414150E+001	8.949476558394963E+000	-1.7191235E-003	-3.6542407E-001	-3.2305440E-001	-9.7968198E-002	1.000000000000000E+000	9	8.4391730E-003	2.3695093E-003	-1.187827274027998E-003	0.0000000E+000	-1.0014995E+002	2.3436628E-001	-1.5461916E-001	2.8077507E-001	-3.3414150E+001	-5.409175129293653E-005
2.2387173E+005	3.0081818E+000	-1.7464896E+000	3.4784169E+000	3.0138586E+001	9.544481626624474E+000	-1.7276803E-003	-3.6077872E-001	-4.0705666E-001	-1.0261802E-001	1.000000000000000E+000	9	1.0682847E-002	3.0711808E-003	-1.243983697251979E-003	0.0000000E+000	-1.0010184E+002	2.4862272E-001	-1.4434533E-001	2.8748709E-001	-3.0138586E+001	-5.615642322398095E-005
1.9954350E+005	3.0318861E+000	-1.5594431E+000	3.4094276E+000	2.7218912E+001	1.014147389502614E+001	-1.7307749E-003	-3.6249506E-001	-5.1146162E-001	-1.0700132E-001	1.000000000000000E+000	9	1.3707531E-002	4.0204786E-003	-1.296056083265737E-003	0.0000000E+000	-1.0008581E+002	2.6082543E-001	-1.3415492E-001	2.9330435E-001	-2.7218912E+001	-5.207238601375786E-005
1.7783180E+005	3.0518482E+000	-1.3954593E+000	3.3557539E+000	2.4572275E+001	1.073647210994386E+001	-1.7224789E-003	-3.6389422E-001	-6.4134771E-001	-1.1090412E-001	1.000000000000000E+000	9	1.7838662E-002	5.3158435E-003	-1.355226027151175E-003	0.0000000E+000	-1.0008581E+002	2.7100837E-001	-1.2391873E-001	2.9799563E-001	-2.4572275E+001	-5.916994388543788E-005
1.5848613E+005	3.0624566E+000	-1.2525091E+000	3.3086884E+000	2.2243992E+001	1.133249528487795E+001	-1.7159724E-003	-3.6016303E-001	-8.0176669E-001	-1.1489418E-001	1.000000000000000E+000	9	2.3497915E-002	7.1018822E-003	-1.401810511289624E-003	0.0000000E+000	-1.0012590E+002	2.7974233E-001	-1.1441136E-001	3.0223456E-001	-2.2243992E+001	-4.658448413844842E-005
1.4125594E+005	3.0665882E+000	-1.1249371E+000	3.2664118E+000	2.0144892E+001	1.192848427323042E+001	-1.7124302E-003	-3.6488289E-001	-1.0015789E+000	-1.1879544E-001	1.000000000000000E+000	9	3.1335711E-002	9.5933136E-003	-1.451949656750690E-003	0.0000000E+000	-1.0005373E+002	2.8741774E-001	-1.0543538E-001	3.0614632E-001	-2.0144892E+001	-5.013914546106641E-005
1.2590930E+005	3.0688419E+000	-1.0122064E+000	3.2314630E+000	1.8254278E+001	1.252548150156508E+001	-1.7031645E-003	-3.6284935E-001	-1.2488010E+000	-1.2252736E-001	1.000000000000000E+000	9	4.3234263E-002	1.3379161E-002	-1.525470010912764E-003	0.0000000E+000	-1.0011788E+002	2.9388416E-001	-9.6932791E-002	3.0945736E-001	-1.8254278E+001	-7.352035416207368E-005
1.1220494E+005	3.0692930E+000	-9.1711444E-001	3.2033823E+000	1.6636312E+001	1.312148248989251E+001	-1.5716961E-003	-3.2615286E-001	-1.5466236E+000	-1.2676932E-001	1.000000000000000E+000	9	8.1890881E-002	2.5563881E-002	-1.569254663220807E-003	0.0000000E+000	-1.0004572E+002	2.9910302E-001	-8.9372933E-002	3.1217006E-001	-1.6636312E+001	-4.378465230804357E-005
1.0000371E+005	3.0707288E+000	-8.2230812E-001	3.1789253E+000	1.4991449E+001	1.385248847128241E+001	-1.5363111E-003	-2.8749734E-001	-1.9353942E+000	-1.2950243E-001	1.000000000000000E+000	9	1.4057361E-001	4.4220481E-002	-1.655311557743175E-003	0.0000000E+000	-1.0010986E+002	3.0386508E-001	-8.1371799E-002	3.1457171E-001	-1.4991449E+001	-8.605689452236736E-005
8.9129305E+004	3.0643952E+000	-7.3588502E-001	3.1515148E+000	1.3503338E+001	1.458447658605292E+001	-1.4506485E-003	-2.6488638E-001	-2.4265523E+000	-1.3230336E-001	1.000000000000000E+000	9	1.3890181E-001	4.4074621E-002	-1.823595328007301E-003	0.0000000E+000	-1.0007779E+002	3.0853617E-001	-7.4091993E-002	3.1730774E-001	-1.3503338E+001	-1.682837702641263E-004
7.9433273E+004	3.0579579E+000	-6.5877068E-001	3.1281121E+000	1.2157333E+001	1.518047656098497E+001	-1.4041355E-003	-2.5177130E-001	-3.0414693E+000	-1.3489236E-001	1.000000000000000E+000	9	1.2083387E-001	3.8628370E-002	-1.885713479993955E-003	0.0000000E+000	-1.0014193E+002	3.1251213E-001	-6.7323960E-002	3.1968164E-001	-1.2157333E+001	-6.211815198665449E-005
7.0794977E+004	3.0533047E+000	-5.8927739E-001	3.1096489E+000	1.0923586E+001	1.577647173599689E+001	-1.4069130E-003	-2.3927183E-001	-3.8150296E+000	-1.3699816E-001	1.000000000000000E+000	9	1.2687768E-001	4.0801287E-002	-1.919944871198502E-003	0.0000000E+000	-1.0007779E+002	3.1575292E-001	-6.0939241E-002	3.2157969E-001	-1.0923586E+001	-3.423139120454686E-005
6.3093828E+004	3.0492270E+000	-5.2701581E-001	3.0944355E+000	9.8058910E+000	1.637247064427356E+001	-1.3824541E-003	-2.2149272E-001	-4.7864065E+000	-1.3883342E-001	1.000000000000000E+000	9	1.2885441E-001	4.1640684E-002	-1.895920915206881E-003	0.0000000E+000	-1.0008581E+002	3.1843948E-001	-5.5037770E-002	3.2316074E-001	-9.8058910E+000	2.402395599162090E-005
5.6237012E+004	3.0457494E+000	-4.7099265E-001	3.0819514E+000	8.7905512E+000	1.696847221927601E+001	-1.3570628E-003	-2.1973905E-001	-6.0087447E+000	-1.4033321E-001	1.000000000000000E+000	9	1.3001055E-001	4.2184491E-002	-1.842121225808010E-003	0.0000000E+000	-1.0013391E+002	3.2065839E-001	-4.9586397E-002	3.2446975E-001	-8.7905512E+000	5.379968939887153E-005
5.0122477E+004	3.0430841E+000	-4.2095122E-001	3.0720613E+000	7.8757701E+000	1.756349654085352E+001	-1.3279989E-003	-2.0503813E-001	-7.5432034E+000	-1.4163142E-001	1.000000000000000E+000	9	1.3043240E-001	4.2457614E-002	-1.869754120478187E-003	0.0000000E+000	-1.0006977E+002	3.2244393E-001	-4.4603817E-002	3.2551435E-001	-7.8757701E+000	-2.763289467017679E-005
4.4666715E+004	3.0407043E+000	-3.7611178E-001	3.0638771E+000	7.0512323E+000	1.815849494244321E+001	-1.3343374E-003	-2.1645558E-001	-9.4736900E+000	-1.4276126E-001	1.000000000000000E+000	9	1.3038374E-001	4.2555150E-002	-1.841578679217841E-003	0.0000000E+000	-1.0009383E+002	3.2391533E-001	-4.0065840E-002	3.2638386E-001	-7.0512323E+000	2.817544126034605E-005
3.9814063E+004	3.0387692E+000	-3.3588225E-001	3.0572758E+000	6.3074327E+000	1.861848683099379E+001	-1.4873554E-003	-2.2804087E-001	-1.1901360E+001	-1.4364862E-001	1.000000000000000E+000	9	1.3862546E-001	4.5342803E-002	-1.837853190048688E-003	0.0000000E+000	-1.0011788E+002	3.2510865E-001	-3.5935018E-002	3.2708859E-001	-6.3074327E+000	3.725489169152229E-006
3.5480996E+004	3.0355742E+000	-2.9963803E-001	3.0503268E+000	5.6373391E+000	1.921348672590102E+001	-1.3015448E-003	-2.0936628E-001	-1.4970192E+001	-1.4445364E-001	1.000000000000000E+000	9	1.3147196E-001	4.3100942E-002	-1.990348993036262E-003	0.0000000E+000	-1.0006977E+002	3.2624817E-001	-3.2203585E-002	3.2783371E-001	-5.6373391E+000	-1.524958029875737E-004
3.1621143E+004	3.0343087E+000	-2.6745096E-001	3.0460727E+000	5.0371642E+000	1.967348957443028E+001	-1.3401348E-003	-2.1069080E-001	-1.8819080E+001	-1.4507955E-001	1.000000000000000E+000	9	1.3604234E-001	4.4661555E-002	-2.019793485922623E-003	0.0000000E+000	-1.0010184E+002	3.2702368E-001	-2.8824622E-002	3.2829157E-001	-5.0371642E+000	-2.944449288636063E-005
2.8188096E+004	3.0333848E+000	-2.3859730E-001	3.0427539E+000	4.4974608E+000	2.013348047624459E+001	-1.3328827E-003	-2.0759386E-001	-2.3664038E+001	-1.4550780E-001	1.000000000000000E+000	9	1.3956828E-001	4.5869067E-002	-2.032785951665693E-003	0.0000000E+000	-1.0005373E+002	3.2763767E-001	-2.5771033E-002	3.2864964E-001	-4.4974608E+000	-1.299246574307071E-005
2.5116910E+004	3.0315354E+000	-2.1290125E-001	3.0390022E+000	4.0172210E+000	2.072947487790952E+001	-1.3314660E-003	-2.1205263E-001	-2.9762932E+001	-1.4607306E-001	1.000000000000000E+000	9	1.3066269E-001	4.2995263E-002	-2.110844884410966E-003	0.0000000E+000	-1.0008581E+002	3.2824689E-001	-2.3052402E-002	3.2905537E-001	-4.0172210E+000	-7.805893274527272E-005
2.2389027E+004	3.0310509E+000	-1.8978503E-001	3.0369866E+000	3.5828185E+000	2.118849633968784E+001	-1.3111082E-003	-2.0740728E-001	-3.7456135E+001	-1.4627197E-001	1.000000000000000E+000	9	1.3225153E-001	4.3546960E-002	-2.120535040667940E-003	0.0000000E+000	-1.0009383E+002	3.2863021E-001	-2.0576725E-002	3.2927376E-001	-3.5828185E+000	-9.690156256974072E-006
1.9948783E+004	3.0303550E+000	-1.6895550E-001	3.0350614E+000	3.1911857E+000	2.164848857486504E+001	-1.3181736E-003	-2.0472082E-001	-4.7220585E+001	-1.4633261E-001	1.000000000000000E+000	9	1.3335007E-001	4.3936532E-002	-2.114480221187269E-003	0.0000000E+000	-1.0011788E+002	3.2897174E-001	-1.8341608E-002	3.2948264E-001	-3.1911857E+000	6.054819480670950E-006
1.7786895E+004	3.0298054E+000	-1.5060484E-001	3.0335462E+000	2.8457026E+000	2.210747521001031E+001	-1.3106606E-003	-2.0748186E-001	-5.9412941E+001	-1.4643933E-001	1.000000000000000E+000	9	1.3410127E-001	4.4206109E-002	-2.171103509976205E-003	0.0000000E+000	-1.0006977E+002	3.2924068E-001	-1.6365817E-002	3.2964718E-001	-2.8457026E+000	-5.662328878893591E-005
1.5847686E+004	3.0295224E+000	-1.3428916E-001	3.0324972E+000	2.5380795E+000	2.256749165852671E+001	-1.3208025E-003	-2.0613857E-001	-7.4784798E+001	-1.4665417E-001	1.000000000000000E+000	9	1.3461795E-001	4.4391781E-002	-2.232712124910193E-003	0.0000000E+000	-1.0010986E+002	3.2943773E-001	-1.4602935E-002	3.2976124E-001	-2.5380795E+000	-6.160861493398773E-005
1.4121879E+004	3.0289586E+000	-1.1943021E-001	3.0313122E+000	2.2579722E+000	2.302647922703181E+001	-1.3281663E-003	-2.0733252E-001	-9.4365540E+001	-1.4648074E-001	1.000000000000000E+000	9	1.3493006E-001	4.4512097E-002	-2.231633660931955E-003	0.0000000E+000	-1.0011788E+002	3.2963398E-001	-1.2997292E-002	3.2989013E-001	-2.2579722E+000	1.078463978237618E-006
1.2590932E+004	3.0288115E+000	-1.0636756E-001	3.0306785E+000	2.0113199E+000	2.348547690213309E+001	-1.3024395E-003	-1.9994482E-001	-1.1883738E+002	-1.4638336E-001	1.000000000000000E+000	9	1.3513973E-001	4.4590589E-002	-2.299004529334178E-003	0.0000000E+000	-1.0006977E+002	3.2975584E-001	-1.1580558E-002	3.2995912E-001	-2.0113199E+000	-6.737086840222272E-005
1.1217711E+004	3.0286927E+000	-9.4803654E-002	3.0301762E+000	1.7928779E+000	2.394447351057897E+001	-1.3098593E-003	-2.0432894E-001	-1.4965486E+002	-1.4648907E-001	1.000000000000000E+000	9	1.3526759E-001	4.4640172E-002	-2.367275030882395E-003	0.0000000E+000	-1.0006977E+002	3.2985225E-001	-1.0324983E-002	3.3001381E-001	-1.7928779E+000	-6.827050154821750E-005
1.0002229E+004	3.0286839E+000	-8.5039154E-002	3.0298774E+000	1.6083239E+000	2.440349521240569E+001	-1.2944977E-003	-1.9348995E-001	-1.8711317E+002	-1.4739817E-001	1.000000000000000E+000	9	1.3537003E-001	4.4678386E-002	-2.433830638880518E-003	0.0000000E+000	-1.0008581E+002	3.2991633E-001	-9.2633655E-003	3.3004636E-001	-1.6083239E+000	-6.655560799812259E-005
8.9149297E+003	3.0284350E+000	-7.5093590E-002	3.0293658E+000	1.4204249E+000	2.488592654201784E+001	-1.2756314E-003	-1.8429255E-001	-2.3773840E+002	-1.4608365E-001	1.000000000000000E+000	9	1.3537690E-001	4.4688199E-002	-2.439749058447351E-003	0.0000000E+000	-1.0008581E+002	3.3000064E-001	-8.1827529E-003	3.3010209E-001	-1.4204249E+000	-5.918419566833255E-006
7.9439976E+003	3.0283492E+000	-6.7075387E-002	3.0290918E+000	1.2688459E+000	2.541197400700185E+001	-1.2626934E-003	-1.8156877E-001	-2.9868805E+002	-1.4646010E-001	1.000000000000000E+000	9	1.3540527E-001	4.4701606E-002	-2.499680801832414E-003	0.0000000E+000	-1.0010184E+002	3.3005100E-001	-7.3103523E-003	3.3013195E-001	-1.2688459E+000	-5.993174338506319E-005
7.0822334E+003	3.0279436E+000	-5.9713725E-002	3.0285323E+000	1.1297770E+000	2.598887742107036E+001	-1.2594309E-003	-1.8520668E-001	-3.7633597E+002	-1.4630516E-001	1.000000000000000E+000	9	1.3540924E-001	4.4711176E-002	-2.505203074283678E-003	0.0000000E+000	-1.0007779E+002	3.3012876E-001	-6.5104309E-003	3.3019295E-001	-1.1297770E+000	-5.522272451263365E-006
6.3077344E+003	3.0278289E+000	-5.2973829E-002	3.0282924E+000	1.0023245E+000	2.662352443786222E+001	-1.2443118E-003	-1.9130717E-001	-4.7630524E+002	-1.4575131E-001	1.000000000000000E+000	9	1.3541231E-001	4.4715729E-002	-2.551117761216010E-003	0.0000000E+000	-1.0006977E+002	3.3016858E-001	-5.7765124E-003	3.3021909E-001	-1.0023245E+000	-4.591468693233196E-005
5.6210552E+003	3.0280104E+000	-4.7308736E-002	3.0283799E+000	8.9509946E-001	2.732426121781464E+001	-1.2406019E-003	-1.8903117E-001	-5.9849554E+002	-1.4605717E-001	1.000000000000000E+000	9	1.3540657E-001	4.4712543E-002	-2.621579977229742E-003	0.0000000E+000	-1.0010184E+002	3.3016926E-001	-5.1584668E-003	3.3020955E-001	-8.9509946E-001	-7.046221601373238E-005
5.0116035E+003	3.0281591E+000	-4.2180404E-002	3.0284529E+000	7.9804355E-001	2.808466906730609E+001	-1.2417950E-003	-1.8923633E-001	-7.5289203E+002	-1.4605369E-001	1.000000000000000E+000	9	1.3540921E-001	4.4712339E-002	-2.690153322112630E-003	0.0000000E+000	-1.0006175E+002	3.3016956E-001	-4.5990599E-003	3.3020160E-001	-7.9804355E-001	-6.857334488288803E-005
4.4664292E+003	3.0280209E+000	-3.7744023E-002	3.0282562E+000	7.1415001E-001	2.884369481002796E+001	-1.2325296E-003	-1.7974047E-001	-9.4408588E+002	-1.4666370E-001	1.000000000000000E+000	9	1.3540500E-001	4.4713855E-002	-2.688785643894212E-003	0.0000000E+000	-1.0009383E+002	3.3019739E-001	-4.1158823E-003	3.3022305E-001	-7.1415001E-001	1.367678218418007E-006
