EC-Lab ASCII FILE
Nb header lines : 75                          

Potentio Electrochemical Impedance Spectroscopy

Run on channel : 1 (SN 20909)
User : 
CE vs. WE compliance from -10 V to 10 V
Electrode connection : standard
Ewe ctrl range : min = -10.00 V, max = 10.00 V
Safety Limits :
	Do not start on E overload
Acquisition started on : 01/22/2020 09:36:56
Technique started on : 01/22/2020 09:36:57
Saved on :
	File : DE_49_1_30.mpr
	Directory : P:\Chemistry\Data\VMP3\Kyler\DOE\DE_49\30C\
	Host : 10.0.4.99
Device : VMP3 (SN 0183)
Address : USB
EC-Lab for windows v11.33 (software)
Internet server v11.32 (firmware)
Command interpretor v11.33 (firmware)
Electrode material : 
Initial state : 
Electrolyte : 
Comments : 
Electrode surface area : 0.001 cm²
Characteristic mass : 0.001 g
Equivalent Weight : 0.000 g/eq.
Density : 0.000 g/cm3
Record Analogic IN 1
Cycle Definition : Charge/Discharge alternance
External device configuration :
   device type : Thermostat
   device name : Other
   Analog OUT : 
      mode : E/V
      unit : T/°C
      max : 400.000 at 5.000 V
      min : -100.000 at 0.000 V
      current : 0.000
   Analog IN 1 : 
      unit : T/°C
      max : 400.000 at 5.000 V
      min : -100.000 at 0.000 V
Mode                Single sine         
E (V)               0.0000              
vs.                 Eoc                 
tE (h:m:s)          0:00:0.0000         
record              0                   
dI                  1.000               
unit dI             mA                  
dt (s)              0.000               
fi                  1.000               
unit fi             MHz                 
ff                  1.000               
unit ff             Hz                  
Nd                  20                  
Points              per decade          
spacing             Logarithmic         
Va (mV)             128.0               
pw                  0.50                
Na                  3                   
corr                0                   
E range min (V)     -10.000             
E range max (V)     10.000              
I Range             Auto                
Bandwidth           5                   
nc cycles           0                   
goto Ns'            0                   
nr cycles           0                   
inc. cycle          1                   

freq/Hz	Re(Z)/Ohm	-Im(Z)/Ohm	|Z|/Ohm	Phase(Z)/deg	time/s	<Ewe>/V	<I>/mA	Cs/µF	Cp/µF	cycle number	I Range	|Ewe|/V	|I|/A	(Q-Qo)/mA.h	Analog OUT/V	Analog IN 1/V	Re(Y)/Ohm-1	Im(Y)/Ohm-1	|Y|/Ohm-1	Phase(Y)/deg	dq/mA.h	
1.0000186E+006	2.2185904E+001	1.6881094E+002	1.7026259E+002	-8.2512840E+001	1.951478385977680E+000	-4.5575923E-003	3.1681899E-003	9.4278238E-004	9.2677475E-004	1.000000000000000E+000	11	5.0348234E-003	2.9570932E-005	7.738996258728245E-007	0.0000000E+000	-1.0006999E+002	7.6531200E-004	5.8232062E-003	5.8732810E-003	8.2512840E+001	7.738996258728245E-007
8.9124669E+005	2.7987741E+001	1.8386269E+002	1.8598065E+002	-8.1344826E+001	2.547485960967606E+000	-4.0291171E-003	3.1769616E-003	9.7124453E-004	9.4924931E-004	1.000000000000000E+000	11	8.2109002E-003	4.4149216E-005	1.195873803201620E-006	0.0000000E+000	-1.0007802E+002	8.0915628E-004	5.3156707E-003	5.3769033E-003	8.1344826E+001	4.219741773287954E-007
7.9433269E+005	3.3548794E+001	2.0223294E+002	2.0499680E+002	-8.0580879E+001	3.143483002641005E+000	-3.6002204E-003	3.1721101E-003	9.9075388E-004	9.6421846E-004	1.000000000000000E+000	11	1.2796682E-002	6.2423816E-005	1.824972727679172E-006	0.0000000E+000	-1.0010207E+002	7.9833053E-004	4.8123566E-003	4.8781252E-003	8.0580879E+001	6.290989244775523E-007
7.0794981E+005	3.8847637E+001	2.2304857E+002	2.2640628E+002	-8.0120087E+001	3.738482364191441E+000	-3.1970015E-003	3.1338516E-003	1.0079017E-003	9.7822817E-004	1.000000000000000E+000	11	1.8829817E-002	8.3168263E-005	2.332965523843692E-006	0.0000000E+000	-1.0005396E+002	7.5785769E-004	4.3513351E-003	4.4168388E-003	8.0120087E+001	5.079927961645200E-007
6.3095681E+005	4.5023197E+001	2.4691171E+002	2.5098303E+002	-7.9665916E+001	4.334496525843861E+000	-2.7678995E-003	3.2228751E-003	1.0215951E-003	9.8872033E-004	1.000000000000000E+000	11	2.6189784E-002	1.0434882E-004	2.818783532984930E-006	0.0000000E+000	-1.0009406E+002	7.1473944E-004	3.9197011E-003	3.9843330E-003	7.9665916E+001	4.858180091412377E-007
5.6234225E+005	5.0890507E+001	2.7381400E+002	2.7850305E+002	-7.9471260E+001	4.929488687455887E+000	-2.4161667E-003	3.1997333E-003	1.0336268E-003	9.9911424E-004	1.000000000000000E+000	11	3.4645047E-002	1.2439737E-004	3.518981097937891E-006	0.0000000E+000	-1.0006197E+002	6.5611029E-004	3.5301710E-003	3.5906250E-003	7.9471260E+001	7.001975649529613E-007
5.0120619E+005	5.7475136E+001	3.0367392E+002	3.0906509E+002	-7.9282631E+001	5.526489515817957E+000	-2.1197058E-003	3.2839044E-003	1.0456739E-003	1.0095115E-003	1.000000000000000E+000	11	4.3997183E-002	1.4235571E-004	4.012214896248123E-006	0.0000000E+000	-1.0008604E+002	6.0170004E-004	3.1791246E-003	3.2355643E-003	7.9282631E+001	4.932337983102319E-007
4.4668572E+005	6.4709000E+001	3.3683768E+002	3.4299692E+002	-7.9125542E+001	6.121471597376512E+000	-1.8903207E-003	3.2114920E-003	1.0577849E-003	1.0201365E-003	1.000000000000000E+000	11	5.4141846E-002	1.5784937E-004	4.743752793835786E-006	0.0000000E+000	-1.0006999E+002	5.5002735E-004	2.8631245E-003	2.9154781E-003	7.9125542E+001	7.315378975876632E-007
3.9810347E+005	7.2733688E+001	3.7318082E+002	3.8020273E+002	-7.8971199E+001	6.717474265693454E+000	-1.7335118E-003	3.3021960E-003	1.0712846E-003	1.0320792E-003	1.000000000000000E+000	11	6.5081239E-002	1.7117510E-004	4.964473572024467E-006	0.0000000E+000	-1.0003791E+002	5.0315895E-004	2.5815994E-003	2.6301758E-003	7.8971199E+001	2.207207781886809E-007
3.5480997E+005	8.1933693E+001	4.1338315E+002	4.2142468E+002	-7.8789116E+001	7.312473227299051E+000	-1.6189214E-003	3.2114922E-003	1.0851044E-003	1.0440882E-003	1.000000000000000E+000	11	7.6925576E-002	1.8253695E-004	5.567014753800726E-006	0.0000000E+000	-1.0010207E+002	4.6134149E-004	2.3276240E-003	2.3729033E-003	7.8789116E+001	6.025411817762590E-007
3.1622997E+005	9.2188278E+001	4.5729156E+002	4.6649142E+002	-7.8602150E+001	7.907475815532962E+000	-1.5576450E-003	3.2449001E-003	1.1005858E-003	1.0576037E-003	1.000000000000000E+000	11	8.9773856E-002	1.9244482E-004	5.971358804135687E-006	0.0000000E+000	-1.0008604E+002	4.2363172E-004	2.1013862E-003	2.1436622E-003	7.8602150E+001	4.043440503349609E-007
2.8183453E+005	1.0357964E+002	5.0561032E+002	5.1611096E+002	-7.8422539E+001	8.504486350604566E+000	-1.5017578E-003	3.2322092E-003	1.1168889E-003	1.0719035E-003	1.000000000000000E+000	11	1.0370824E-001	2.0094175E-004	6.775238671124195E-006	0.0000000E+000	-1.0006999E+002	3.8885546E-004	1.8981466E-003	1.9375678E-003	7.8422539E+001	8.038798669885074E-007
2.5118764E+005	1.4518829E+002	5.8159863E+002	5.9944690E+002	-7.5983353E+001	9.266484306746861E+000	-1.5591379E-003	1.2621962E-003	1.0894279E-003	1.0255192E-003	1.000000000000000E+000	12	5.1242303E-002	8.5482636E-005	7.179216149501170E-006	0.0000000E+000	-1.0004594E+002	4.0404545E-004	1.6185343E-003	1.6682044E-003	7.5983353E+001	4.039774783769751E-007
2.2387173E+005	1.5976178E+002	6.4032953E+002	6.5995886E+002	-7.5990761E+001	9.862495961744571E+000	-1.5000992E-003	1.2333794E-003	1.1102412E-003	1.0451790E-003	1.000000000000000E+000	12	6.2932990E-002	9.5358962E-005	7.581770387646934E-006	0.0000000E+000	-1.0008604E+002	3.6680826E-004	1.4701776E-003	1.5152460E-003	7.5990761E+001	4.025542381457646E-007
1.9954350E+005	1.7527873E+002	7.0430280E+002	7.2578583E+002	-7.6024796E+001	1.045948628344922E+001	-1.4798284E-003	1.2532192E-003	1.1324607E-003	1.0664120E-003	1.000000000000000E+000	12	7.7065244E-002	1.0618180E-004	7.823901408682004E-006	0.0000000E+000	-1.0009406E+002	3.3274549E-004	1.3370339E-003	1.3778169E-003	7.6024796E+001	2.421310210350692E-007
1.7783180E+005	1.9203833E+002	7.7519629E+002	7.9862885E+002	-7.6086304E+001	1.105548892510706E+001	-1.4441925E-003	1.2662094E-003	1.1545136E-003	1.0877583E-003	1.000000000000000E+000	12	9.4156973E-002	1.1789829E-004	8.009923023886384E-006	0.0000000E+000	-1.0010207E+002	3.0109115E-004	1.2154069E-003	1.2521461E-003	7.6086304E+001	1.860216152043803E-007
1.5848613E+005	2.1012260E+002	8.5310822E+002	8.7860406E+002	-7.6163322E+001	1.165048228667001E+001	-1.4313440E-003	1.2174414E-003	1.1771308E-003	1.1098048E-003	1.000000000000000E+000	12	1.1466962E-001	1.3051342E-004	8.016046241743930E-006	0.0000000E+000	-1.0007802E+002	2.7219890E-004	1.1051410E-003	1.1381691E-003	7.6163322E+001	6.123217857545977E-009
1.4125594E+005	2.2935997E+002	9.3919037E+002	9.6679083E+002	-7.6276390E+001	1.211047652186244E+001	-1.4172078E-003	1.2387186E-003	1.1996644E-003	1.1321448E-003	1.000000000000000E+000	12	1.3914159E-001	1.4392109E-004	8.281684963047156E-006	0.0000000E+000	-1.0006197E+002	2.4538758E-004	1.0048207E-003	1.0343499E-003	7.6276390E+001	2.656387213032257E-007
1.2590930E+005	2.5009030E+002	1.0344991E+003	1.0642996E+003	-7.6409492E+001	1.270747684352682E+001	-1.2955695E-003	1.2309904E-003	1.2218902E-003	1.1544223E-003	1.000000000000000E+000	12	1.3150802E-001	1.2356298E-004	8.450990461813895E-006	0.0000000E+000	-1.0005396E+002	2.2078471E-004	9.1327669E-004	9.3958509E-004	7.6409492E+001	1.693054987667389E-007
1.1220494E+005	2.7210831E+002	1.1400482E+003	1.1720720E+003	-7.6575722E+001	1.330348956517992E+001	-1.2013427E-003	1.2462576E-003	1.2441849E-003	1.1771255E-003	1.000000000000000E+000	12	1.3114220E-001	1.1188920E-004	8.583215746814757E-006	0.0000000E+000	-1.0011812E+002	1.9807664E-004	8.2987873E-004	8.5318991E-004	7.6575722E+001	1.322252850008626E-007
1.0000371E+005	2.9565250E+002	1.2568124E+003	1.2911188E+003	-7.6762421E+001	1.389949380684993E+001	-1.1927462E-003	1.2487398E-003	1.2662911E-003	1.1998917E-003	1.000000000000000E+000	12	1.3083619E-001	1.0133552E-004	8.802450586514573E-006	0.0000000E+000	-1.0006999E+002	1.7735733E-004	7.5394218E-004	7.7452208E-004	7.6762421E+001	2.192348396998163E-007
8.9129305E+004	3.2113315E+002	1.3862540E+003	1.4229641E+003	-7.6957191E+001	1.449447703509941E+001	-1.1681500E-003	1.2314009E-003	1.2881214E-003	1.2225159E-003	1.000000000000000E+000	12	1.3056666E-001	9.1756818E-005	9.128431842215327E-006	0.0000000E+000	-1.0004594E+002	1.5859782E-004	6.8462850E-004	7.0275844E-004	7.6957191E+001	3.259812557007540E-007
7.9433273E+004	3.4819089E+002	1.5298667E+003	1.5689897E+003	-7.7178146E+001	1.509048293004162E+001	-1.1379034E-003	1.2083694E-003	1.3096767E-003	1.2451769E-003	1.000000000000000E+000	12	1.3029304E-001	8.3042636E-005	9.318399649226598E-006	0.0000000E+000	-1.0010207E+002	1.4144160E-004	6.2146026E-004	6.3735282E-004	7.7178146E+001	1.899678070112703E-007
7.0794977E+004	3.7759772E+002	1.6892917E+003	1.7309785E+003	-7.7400124E+001	1.568549797168816E+001	-1.1132885E-003	1.2635769E-003	1.3308007E-003	1.2674738E-003	1.000000000000000E+000	12	1.2996840E-001	7.5083779E-005	9.581407742306207E-006	0.0000000E+000	-1.0007802E+002	1.2602187E-004	5.6379515E-004	5.7770795E-004	7.7400124E+001	2.630080930796095E-007
6.3093828E+004	4.0934860E+002	1.8668021E+003	1.9111558E+003	-7.7632050E+001	1.628148893328034E+001	-1.0951443E-003	1.2505307E-003	1.3512477E-003	1.2892566E-003	1.000000000000000E+000	12	1.2957169E-001	6.7797555E-005	9.785059588952410E-006	0.0000000E+000	-1.0009406E+002	1.1207300E-004	5.1110028E-004	5.2324357E-004	7.7632050E+001	2.036518466462026E-007
5.6237012E+004	4.4383237E+002	2.0632551E+003	2.1104524E+003	-7.7859947E+001	1.674149047516403E+001	-1.0995819E-003	1.2265663E-003	1.3716553E-003	1.3109910E-003	1.000000000000000E+000	12	1.4062953E-001	6.6634777E-005	9.922187985092024E-006	0.0000000E+000	-1.0005396E+002	9.9647848E-005	4.6323551E-004	4.7383207E-004	7.7859947E+001	1.371283961396139E-007
5.0122477E+004	4.8094919E+002	2.2823086E+003	2.3324331E+003	-7.8100204E+001	1.733749551678193E+001	-1.0769628E-003	1.2390707E-003	1.3912759E-003	1.3321207E-003	1.000000000000000E+000	12	1.3017319E-001	5.5810040E-005	1.013363696334010E-005	0.0000000E+000	-1.0007802E+002	8.8405839E-005	4.1952319E-004	4.2873685E-004	7.8100204E+001	2.114489782480720E-007
4.4666715E+004	5.2208661E+002	2.5257695E+003	2.5791638E+003	-7.8321213E+001	1.779749161863583E+001	-1.0799461E-003	1.2353751E-003	1.4107251E-003	1.3529196E-003	1.000000000000000E+000	12	1.3603264E-001	5.2742926E-005	1.024549420375236E-005	0.0000000E+000	-1.0009406E+002	7.8484642E-005	3.7969588E-004	3.8772257E-004	7.8321213E+001	1.118572404122675E-007
3.9814063E+004	5.6581793E+002	2.7959231E+003	2.8526016E+003	-7.8559425E+001	1.825749113384518E+001	-1.0873491E-003	1.2408996E-003	1.4297445E-003	1.3734936E-003	1.000000000000000E+000	12	1.4017791E-001	4.9140373E-005	1.042631997370780E-005	0.0000000E+000	-1.0006999E+002	6.9533533E-005	3.4359194E-004	3.5055718E-004	7.8559425E+001	1.808257699554411E-007
3.5480996E+004	6.1610712E+002	3.0967712E+003	3.1574641E+003	-7.8747849E+001	1.885247852207976E+001	-1.0736994E-003	1.2299811E-003	1.4484890E-003	1.3933384E-003	1.000000000000000E+000	12	1.2950787E-001	4.1016418E-005	1.058006751417356E-005	0.0000000E+000	-1.0008604E+002	6.1798695E-005	3.1062204E-004	3.1670986E-004	7.8747849E+001	1.537475404657521E-007
3.1621143E+004	6.7035309E+002	3.4327000E+003	3.4975422E+003	-7.8950089E+001	1.931248974395567E+001	-1.0789022E-003	1.2188011E-003	1.4662456E-003	1.4123829E-003	1.000000000000000E+000	12	1.3109168E-001	3.7481088E-005	1.070408842322786E-005	0.0000000E+000	-1.0008604E+002	5.4799635E-005	2.8061436E-004	2.8591507E-004	7.8950089E+001	1.240209090543028E-007
2.8188096E+004	7.3124585E+002	3.8052146E+003	3.8748391E+003	-7.9122116E+001	1.977248523247545E+001	-1.0855219E-003	1.2431202E-003	1.4837995E-003	1.4309557E-003	1.000000000000000E+000	12	1.3202441E-001	3.4072229E-005	1.087604399104887E-005	0.0000000E+000	-1.0008604E+002	4.8703027E-005	2.5343802E-004	2.5807522E-004	7.9122116E+001	1.719555678210126E-007
2.5116910E+004	7.9910803E+002	4.2188101E+003	4.2938247E+003	-7.9274361E+001	2.023248298760154E+001	-1.0786596E-003	1.2288794E-003	1.5019793E-003	1.4499575E-003	1.000000000000000E+000	12	1.3253182E-001	3.0865682E-005	1.105070525112003E-005	0.0000000E+000	-1.0004594E+002	4.3342781E-005	2.2882388E-004	2.3289261E-004	7.9274361E+001	1.746612600711599E-007
2.2389027E+004	1.0812998E+003	4.7174512E+003	4.8397886E+003	-7.7090088E+001	2.099349731710390E+001	-1.0460076E-003	9.9045946E-004	1.5068760E-003	1.4316589E-003	1.000000000000000E+000	13	1.3119924E-001	2.7108465E-005	1.117586743945483E-005	0.0000000E+000	-1.0012614E+002	4.6162913E-005	2.0139775E-004	2.0662059E-004	7.7090088E+001	1.251621883347988E-007
1.9948783E+004	1.1692485E+003	5.2257397E+003	5.3549507E+003	-7.7387917E+001	2.158947566544521E+001	-1.0453364E-003	9.8931510E-004	1.5267079E-003	1.4539202E-003	1.000000000000000E+000	13	1.2942585E-001	2.4169383E-005	1.139051797017146E-005	0.0000000E+000	-1.0006197E+002	4.0775176E-005	1.8223711E-004	1.8674308E-004	7.7387917E+001	2.146505307166277E-007
1.7786895E+004	1.2649764E+003	5.7882583E+003	5.9248711E+003	-7.7672295E+001	2.204847448723740E+001	-1.0459888E-003	9.8566047E-004	1.5458668E-003	1.4754011E-003	1.000000000000000E+000	13	1.3302092E-001	2.2451277E-005	1.150570582377329E-005	0.0000000E+000	-1.0006999E+002	3.6035013E-005	1.6488839E-004	1.6878004E-004	7.7672295E+001	1.151878536018365E-007
1.5847686E+004	1.3762731E+003	6.4195249E+003	6.5653960E+003	-7.7899605E+001	2.250747552237590E+001	-1.0404505E-003	9.8404789E-004	1.5644130E-003	1.4956684E-003	1.000000000000000E+000	13	1.3163337E-001	2.0049571E-005	1.164494987538794E-005	0.0000000E+000	-1.0008604E+002	3.1928812E-005	1.4892960E-004	1.5231373E-004	7.7899605E+001	1.392440516146445E-007
1.4121879E+004	1.5014697E+003	7.1204888E+003	7.2770718E+003	-7.8092705E+001	2.296649685080047E+001	-1.0423342E-003	9.8717783E-004	1.5827700E-003	1.5153890E-003	1.000000000000000E+000	13	1.2775227E-001	1.7555451E-005	1.175739174303655E-005	0.0000000E+000	-1.0006999E+002	2.8353270E-005	1.3446105E-004	1.3741791E-004	7.8092705E+001	1.124418676486141E-007
1.2590932E+004	1.6445291E+003	7.8967603E+003	8.0661826E+003	-7.8236084E+001	2.342648932602606E+001	-1.0508567E-003	9.9639827E-004	1.6007123E-003	1.5341758E-003	1.000000000000000E+000	13	1.2321071E-001	1.5274971E-005	1.189515238827254E-005	0.0000000E+000	-1.0008604E+002	2.5275840E-005	1.2137042E-004	1.2397439E-004	7.8236084E+001	1.377606452359834E-007
1.1217711E+004	1.8078767E+003	8.7676787E+003	8.9521289E+003	-7.8349022E+001	2.388549601446721E+001	-1.0444233E-003	9.9827396E-004	1.6181966E-003	1.5522008E-003	1.000000000000000E+000	13	1.1885843E-001	1.3277114E-005	1.203396447369839E-005	0.0000000E+000	-1.0007802E+002	2.2558814E-005	1.0940369E-004	1.1170527E-004	7.8349022E+001	1.388120854258483E-007
1.0002229E+004	1.9954058E+003	9.7280518E+003	9.9305908E+003	-7.8408348E+001	2.448048004272277E+001	-1.0505766E-003	9.9970354E-004	1.6356766E-003	1.5696362E-003	1.000000000000000E+000	13	1.2675712E-001	1.2764307E-005	1.220039267436207E-005	0.0000000E+000	-1.0011812E+002	2.0233962E-005	9.8645141E-005	1.0069894E-004	7.8408348E+001	1.664282006636813E-007
8.9149297E+003	2.2157034E+003	1.0795501E+004	1.1020534E+004	-7.8401505E+001	2.496290523902280E+001	-1.0501294E-003	1.0066580E-003	1.6537103E-003	1.5868640E-003	1.000000000000000E+000	13	1.2328213E-001	1.1186584E-005	1.232701840108166E-005	0.0000000E+000	-1.0006999E+002	1.8243418E-005	8.8886845E-005	9.0739704E-005	7.8401505E+001	1.266257267195927E-007
7.9439976E+003	2.4712571E+003	1.1984384E+004	1.2236526E+004	-7.8348557E+001	2.548899657066795E+001	-1.0548101E-003	1.0182711E-003	1.6717269E-003	1.6035424E-003	1.000000000000000E+000	13	1.2043781E-001	9.8424835E-006	1.248318322516687E-005	0.0000000E+000	-1.0009406E+002	1.6504468E-005	8.0038590E-005	8.1722537E-005	7.8348557E+001	1.561648240852070E-007
7.0822334E+003	2.7733616E+003	1.3294314E+004	1.3580513E+004	-7.8216377E+001	2.606586782474187E+001	-1.0377475E-003	1.0153706E-003	1.6903784E-003	1.6198825E-003	1.000000000000000E+000	13	1.1813900E-001	8.6991558E-006	1.263922690887034E-005	0.0000000E+000	-1.0010207E+002	1.5037448E-005	7.2083130E-005	7.3634925E-005	7.8216377E+001	1.560436837034761E-007
6.3077344E+003	3.1244050E+003	1.4764580E+004	1.5091545E+004	-7.8051628E+001	2.670053966817795E+001	-1.0287034E-003	1.0158092E-003	1.7089352E-003	1.6356879E-003	1.000000000000000E+000	13	1.1628950E-001	7.7056056E-006	1.282023789585965E-005	0.0000000E+000	-1.0004594E+002	1.3718292E-005	6.4826665E-005	6.6262270E-005	7.8051628E+001	1.810109869893102E-007
5.6210552E+003	3.5313628E+003	1.6376124E+004	1.6752551E+004	-7.7831024E+001	2.760528115116176E+001	-1.0077243E-003	1.0265769E-003	1.7289846E-003	1.6521577E-003	1.000000000000000E+000	13	1.2658136E-001	7.5559456E-006	1.308442078056593E-005	0.0000000E+000	-1.0006197E+002	1.2582891E-005	5.8351125E-005	5.9692404E-005	7.7831024E+001	2.641828847062782E-007
5.0116035E+003	4.0171240E+003	1.8148697E+004	1.8587967E+004	-7.7519096E+001	2.836569542731741E+001	-9.9422352E-004	1.0363888E-003	1.7498385E-003	1.6681115E-003	1.000000000000000E+000	13	1.2527126E-001	6.7393739E-006	1.330380954148101E-005	0.0000000E+000	-1.0007802E+002	1.1626566E-005	5.2526892E-005	5.3798245E-005	7.7519096E+001	2.193887609150809E-007
4.4664292E+003	4.5906279E+003	2.0109150E+004	2.0626482E+004	-7.7140564E+001	2.912568298341648E+001	-9.8872255E-004	1.0269912E-003	1.7720092E-003	1.6842365E-003	1.000000000000000E+000	13	1.2422087E-001	6.0223970E-006	1.352094607956749E-005	0.0000000E+000	-1.0002187E+002	1.0790010E-005	4.7265403E-005	4.8481365E-005	7.7140564E+001	2.171365380864789E-007
3.9812742E+003	5.2507798E+003	2.2263707E+004	2.2874514E+004	-7.6729584E+001	2.988568781951471E+001	-9.9101628E-004	1.0236893E-003	1.7955626E-003	1.7009509E-003	1.000000000000000E+000	13	1.2338991E-001	5.3942090E-006	1.373323532019266E-005	0.0000000E+000	-1.0006197E+002	1.0035064E-005	4.2549429E-005	4.3716776E-005	7.6729584E+001	2.122892406251700E-007
