EC-Lab ASCII FILE
Nb header lines : 75                          

Potentio Electrochemical Impedance Spectroscopy

Run on channel : 1 (SN 20909)
User : 
CE vs. WE compliance from -10 V to 10 V
Electrode connection : standard
Ewe ctrl range : min = -10.00 V, max = 10.00 V
Safety Limits :
	Do not start on E overload
Acquisition started on : 01/23/2020 15:13:44
Technique started on : 01/23/2020 15:13:45
Saved on :
	File : DE_40_1_30.mpr
	Directory : P:\Chemistry\Data\VMP3\Kyler\DOE\DE_40\2ND 30C\
	Host : 10.0.4.99
Device : VMP3 (SN 0183)
Address : USB
EC-Lab for windows v11.33 (software)
Internet server v11.32 (firmware)
Command interpretor v11.33 (firmware)
Electrode material : 
Initial state : 
Electrolyte : 
Comments : 
Electrode surface area : 0.001 cm²
Characteristic mass : 0.001 g
Equivalent Weight : 0.000 g/eq.
Density : 0.000 g/cm3
Record Analogic IN 1
Cycle Definition : Charge/Discharge alternance
External device configuration :
   device type : Thermostat
   device name : Other
   Analog OUT : 
      mode : E/V
      unit : T/°C
      max : 400.000 at 5.000 V
      min : -100.000 at 0.000 V
      current : 0.000
   Analog IN 1 : 
      unit : T/°C
      max : 400.000 at 5.000 V
      min : -100.000 at 0.000 V
Mode                Single sine         
E (V)               0.0000              
vs.                 Eoc                 
tE (h:m:s)          0:00:0.0000         
record              0                   
dI                  1.000               
unit dI             mA                  
dt (s)              0.000               
fi                  1.000               
unit fi             MHz                 
ff                  1.000               
unit ff             Hz                  
Nd                  20                  
Points              per decade          
spacing             Logarithmic         
Va (mV)             128.0               
pw                  0.50                
Na                  3                   
corr                0                   
E range min (V)     -10.000             
E range max (V)     10.000              
I Range             Auto                
Bandwidth           5                   
nc cycles           0                   
goto Ns'            0                   
nr cycles           0                   
inc. cycle          1                   

freq/Hz	Re(Z)/Ohm	-Im(Z)/Ohm	|Z|/Ohm	Phase(Z)/deg	time/s	<Ewe>/V	<I>/mA	Cs/µF	Cp/µF	cycle number	I Range	|Ewe|/V	|I|/A	(Q-Qo)/mA.h	Analog OUT/V	Analog IN 1/V	Re(Y)/Ohm-1	Im(Y)/Ohm-1	|Y|/Ohm-1	Phase(Y)/deg	dq/mA.h	
1.0000186E+006	5.4048367E+001	1.5066867E+002	1.6006960E+002	-7.0265907E+001	1.952490226045484E+000	1.4332765E-001	2.9341527E-003	1.0563044E-003	9.3587389E-004	1.000000000000000E+000	11	4.5951004E-003	2.8706891E-005	6.667457309556792E-007	0.0000000E+000	-1.0007802E+002	2.1094286E-003	5.8803782E-003	6.2472825E-003	7.0265907E+001	6.667457309556792E-007
8.9124669E+005	6.3989281E+001	1.5915256E+002	1.7153473E+002	-6.8096786E+001	2.547490414319327E+000	1.4385515E-001	2.9621483E-003	1.1220406E-003	9.6589897E-004	1.000000000000000E+000	11	7.2081187E-003	4.2021336E-005	1.192502523132538E-006	0.0000000E+000	-1.0011009E+002	2.1747188E-003	5.4089064E-003	5.8297231E-003	6.8096786E+001	5.257567921768592E-007
7.9433269E+005	7.4258514E+001	1.6997333E+002	1.8548654E+002	-6.6400284E+001	3.143485242588213E+000	1.4428037E-001	2.8770443E-003	1.1787913E-003	9.8985969E-004	1.000000000000000E+000	11	1.0947607E-002	5.9021029E-005	1.663158337816438E-006	0.0000000E+000	-1.0008604E+002	2.1583480E-003	4.9403301E-003	5.3912266E-003	6.6400284E+001	4.706558146838993E-007
7.0794981E+005	8.4547234E+001	1.8214189E+002	2.0080812E+002	-6.5100060E+001	3.738496310863411E+000	1.4471847E-001	2.8841367E-003	1.2342633E-003	1.0154650E-003	1.000000000000000E+000	11	1.5916295E-002	7.9261212E-005	2.106555582247691E-006	0.0000000E+000	-1.0009406E+002	2.0967023E-003	4.5169708E-003	4.9798782E-003	6.5100060E+001	4.433972444312529E-007
6.3095681E+005	9.4702721E+001	1.9564064E+002	2.1735654E+002	-6.4170013E+001	4.334484579187119E+000	1.4509398E-001	2.9134389E-003	1.2893222E-003	1.0445619E-003	1.000000000000000E+000	11	2.2123786E-002	1.0178569E-004	2.647877882438479E-006	0.0000000E+000	-1.0006999E+002	2.0045510E-003	4.1410802E-003	4.6007358E-003	6.4170013E+001	5.413223001907885E-007
5.6234225E+005	1.0540199E+002	2.1074834E+002	2.3563625E+002	-6.3428902E+001	4.929493727424415E+000	1.4545956E-001	3.0106744E-003	1.3429358E-003	1.0742352E-003	1.000000000000000E+000	11	2.9532747E-002	1.2533194E-004	3.194082534136315E-006	0.0000000E+000	-1.0006999E+002	1.8982987E-003	3.7955961E-003	4.2438293E-003	6.3428902E+001	5.462046516978361E-007
5.0120619E+005	1.1639323E+002	2.2701955E+002	2.5511812E+002	-6.2855724E+001	5.526492422475712E+000	1.4574285E-001	2.9811875E-003	1.3987513E-003	1.1076037E-003	1.000000000000000E+000	11	3.8054917E-002	1.4916588E-004	3.867714873812575E-006	0.0000000E+000	-1.0008604E+002	1.7883193E-003	3.4880333E-003	3.9197528E-003	6.2855724E+001	6.736323396762600E-007
4.4668572E+005	1.2802353E+002	2.4476466E+002	2.7622412E+002	-6.2388302E+001	6.121490744088078E+000	1.4599817E-001	2.9750301E-003	1.4556915E-003	1.1429930E-003	1.000000000000000E+000	11	4.7620941E-002	1.7239964E-004	4.207865234147499E-006	0.0000000E+000	-1.0006999E+002	1.6779019E-003	3.2079348E-003	3.6202488E-003	6.2388302E+001	3.401503603349237E-007
3.9810347E+005	1.4020859E+002	2.6393045E+002	2.9886072E+002	-6.2021278E+001	6.716479705675738E+000	1.4613712E-001	2.9378906E-003	1.5147282E-003	1.1813430E-003	1.000000000000000E+000	11	5.8218751E-002	1.9480228E-004	4.955263915366635E-006	0.0000000E+000	-1.0004594E+002	1.5697735E-003	2.9549615E-003	3.3460404E-003	6.2021278E+001	7.473986812191363E-007
3.5480997E+005	1.5311446E+002	2.8428687E+002	3.2289792E+002	-6.1693478E+001	7.312488507275702E+000	1.4626010E-001	2.9065369E-003	1.5778565E-003	1.2230681E-003	1.000000000000000E+000	11	6.9856226E-002	2.1634152E-004	5.651948905590366E-006	0.0000000E+000	-1.0006999E+002	1.4685397E-003	2.7266308E-003	3.0969540E-003	6.1693478E+001	6.966849902237306E-007
3.1622997E+005	1.6704164E+002	3.0666656E+002	3.4920953E+002	-6.1422817E+001	7.908488028944703E+000	1.4634106E-001	2.9599138E-003	1.6411591E-003	1.2656434E-003	1.000000000000000E+000	11	8.2662411E-002	2.3671292E-004	6.005968153133937E-006	0.0000000E+000	-1.0006197E+002	1.3697855E-003	2.5147467E-003	2.8636102E-003	6.1422817E+001	3.540192475435711E-007
2.8183453E+005	1.8199747E+002	3.3089560E+002	3.7764398E+002	-6.1188557E+001	8.504484430566663E+000	1.4636911E-001	2.9703660E-003	1.7066124E-003	1.3102428E-003	1.000000000000000E+000	11	9.6633315E-002	2.5588469E-004	6.972442125574162E-006	0.0000000E+000	-1.0011812E+002	1.2761456E-003	2.3202023E-003	2.6479966E-003	6.1188557E+001	9.664739724402251E-007
2.5118764E+005	1.9825966E+002	3.5694263E+002	4.0830740E+002	-6.0950523E+001	9.099493338813772E+000	1.4641558E-001	2.9261336E-003	1.7751026E-003	1.3565811E-003	1.000000000000000E+000	11	1.1181914E-001	2.7386018E-004	7.460955607902077E-006	0.0000000E+000	-1.0006999E+002	1.1892135E-003	2.1410356E-003	2.4491351E-003	6.0950523E+001	4.885134823279153E-007
2.2387173E+005	2.1589310E+002	3.8542078E+002	4.4176804E+002	-6.0744671E+001	9.558496773970546E+000	1.4648050E-001	2.8802217E-003	1.8445301E-003	1.4040009E-003	1.000000000000000E+000	11	1.2821329E-001	2.9022762E-004	8.052929887546472E-006	0.0000000E+000	-1.0005396E+002	1.1062421E-003	1.9749065E-003	2.2636314E-003	6.0744671E+001	5.919742796443947E-007
1.9954350E+005	2.3513869E+002	4.1614764E+002	4.7798438E+002	-6.0531956E+001	1.015549666897277E+001	1.4654118E-001	2.8736892E-003	1.9166160E-003	1.4527892E-003	1.000000000000000E+000	11	1.2880841E-001	2.6948247E-004	8.800110293416461E-006	0.0000000E+000	-1.0006999E+002	1.0291928E-003	1.8214616E-003	2.0921186E-003	6.0531956E+001	7.471804058699894E-007
1.7783180E+005	2.5632968E+002	4.4974609E+002	5.1766443E+002	-6.0319321E+001	1.075048171056551E+001	1.4657271E-001	2.8421490E-003	1.9899553E-003	1.5020400E-003	1.000000000000000E+000	11	1.2963666E-001	2.5042606E-004	9.033301854978263E-006	0.0000000E+000	-1.0005396E+002	9.5653808E-004	1.6783045E-003	1.9317534E-003	6.0319321E+001	2.331915615618022E-007
1.5848613E+005	3.0039648E+002	4.8952902E+002	5.7434894E+002	-5.8464897E+001	1.164947401997051E+001	1.4644514E-001	1.1391280E-003	2.0514005E-003	1.4902382E-003	1.000000000000000E+000	12	8.0607668E-002	1.4034616E-004	8.841030151346786E-006	0.0000000E+000	-1.0009406E+002	9.1063255E-004	1.4839758E-003	1.7411018E-003	5.8464897E+001	-1.922717036314777E-007
1.4125594E+005	3.2686469E+002	5.2878198E+002	6.2165173E+002	-5.8277866E+001	1.224449674153584E+001	1.4646773E-001	1.1583338E-003	2.1307708E-003	1.5416854E-003	1.000000000000000E+000	12	9.6812285E-002	1.5573396E-004	8.862925720389083E-006	0.0000000E+000	-1.0009406E+002	8.4581168E-004	1.3683032E-003	1.6086177E-003	5.8277866E+001	2.189556904229751E-008
1.2590930E+005	3.5665970E+002	5.7113855E+002	6.7335382E+002	-5.8016399E+001	1.270547153675579E+001	1.4647639E-001	1.1482183E-003	2.2132010E-003	1.5922716E-003	1.000000000000000E+000	12	1.1605655E-001	1.7235597E-004	8.863713521343116E-006	0.0000000E+000	-1.0006999E+002	7.8662432E-004	1.2596642E-003	1.4851033E-003	5.8016399E+001	7.878009540325406E-010
1.1220494E+005	3.9014447E+002	6.1657904E+002	7.2964539E+002	-5.7676147E+001	1.316548337196582E+001	1.4646234E-001	1.1294613E-003	2.3004850E-003	1.6427566E-003	1.000000000000000E+000	12	1.3879715E-001	1.9022549E-004	8.842553522200635E-006	0.0000000E+000	-1.0003791E+002	7.3282752E-004	1.1581507E-003	1.3705288E-003	5.7676147E+001	-2.115999914248043E-008
1.0000371E+005	4.2836096E+002	6.6517871E+002	7.9117371E+002	-5.7219326E+001	1.376048134689336E+001	1.4657862E-001	1.1226299E-003	2.3925756E-003	1.6912143E-003	1.000000000000000E+000	12	1.3151821E-001	1.6623178E-004	9.079967304972494E-006	0.0000000E+000	-1.0010207E+002	6.8433094E-004	1.0626607E-003	1.