EC-Lab ASCII FILE
Nb header lines : 75                          

Potentio Electrochemical Impedance Spectroscopy

Run on channel : 4 (SN 4192)
User : 
CE vs. WE compliance from -10 V to 10 V
Electrode connection : standard
Ewe ctrl range : min = -10.00 V, max = 10.00 V
Safety Limits :
	Do not start on E overload
Acquisition started on : 01/24/2020 09:53:01
Technique started on : 01/24/2020 09:53:02
Saved on :
	File : DE_40_12_60.mpr
	Directory : P:\Chemistry\Data\VMP3\Kyler\DOE\DE_40\2ND 60C\
	Host : 10.0.4.99
Device : VMP3 (SN 0183)
Address : USB
EC-Lab for windows v11.33 (software)
Internet server v11.32 (firmware)
Command interpretor v11.33 (firmware)
Electrode material : 
Initial state : 
Electrolyte : 
Comments : 
Electrode surface area : 0.001 cm²
Characteristic mass : 0.001 g
Equivalent Weight : 0.000 g/eq.
Density : 0.000 g/cm3
Record Analogic IN 1
Cycle Definition : Charge/Discharge alternance
External device configuration :
   device type : Thermostat
   device name : Other
   Analog OUT : 
      mode : E/V
      unit : T/°C
      max : 400.000 at 5.000 V
      min : -100.000 at 0.000 V
      current : 0.000
   Analog IN 1 : 
      unit : T/°C
      max : 400.000 at 5.000 V
      min : -100.000 at 0.000 V
Mode                Single sine         
E (V)               0.0000              
vs.                 Eoc                 
tE (h:m:s)          0:00:0.0000         
record              0                   
dI                  1.000               
unit dI             mA                  
dt (s)              0.000               
fi                  1.000               
unit fi             MHz                 
ff                  1.000               
unit ff             Hz                  
Nd                  20                  
Points              per decade          
spacing             Logarithmic         
Va (mV)             128.0               
pw                  0.50                
Na                  3                   
corr                0                   
E range min (V)     -10.000             
E range max (V)     10.000              
I Range             Auto                
Bandwidth           5                   
nc cycles           0                   
goto Ns'            0                   
nr cycles           0                   
inc. cycle          1                   

freq/Hz	Re(Z)/Ohm	-Im(Z)/Ohm	|Z|/Ohm	Phase(Z)/deg	time/s	<Ewe>/V	<I>/mA	Cs/µF	Cp/µF	cycle number	I Range	|Ewe|/V	|I|/A	(Q-Qo)/mA.h	Analog OUT/V	Analog IN 1/V	Re(Y)/Ohm-1	Im(Y)/Ohm-1	|Y|/Ohm-1	Phase(Y)/deg	dq/mA.h	
1.0000186E+006	5.4075867E+001	1.8305256E+001	5.7090118E+001	-1.8701508E+001	1.645478371443460E+000	-1.3135715E-002	1.3410321E-003	8.6943330E-003	8.9385273E-004	1.000000000000000E+000	11	4.5422246E-004	7.9562360E-006	3.946070975149875E-007	0.0000000E+000	-1.0012865E+002	1.6591344E-002	5.6163468E-003	1.7516166E-002	1.8701508E+001	3.946070975149875E-007
8.9124669E+005	5.5513630E+001	1.4813874E+001	5.7456192E+001	-1.4941283E+001	2.241486373095540E+000	-1.2841552E-002	1.6635713E-003	1.2054620E-002	8.0134068E-004	1.000000000000000E+000	11	5.3182634E-004	9.2562059E-006	8.143450078407315E-007	0.0000000E+000	-1.0008855E+002	1.6816124E-002	4.4874018E-003	1.7404564E-002	1.4941283E+001	4.197379103257441E-007
7.9433269E+005	5.7302803E+001	1.3853001E+001	5.8953514E+001	-1.3590549E+001	2.837488641409436E+000	-1.2626788E-002	2.0871721E-003	1.4463515E-002	7.9862360E-004	1.000000000000000E+000	11	4.3442208E-004	7.3688921E-006	1.092277759968662E-006	0.0000000E+000	-1.0006450E+002	1.6487563E-002	3.9858823E-003	1.6962517E-002	1.3590549E+001	2.779327521279305E-007
7.0794981E+005	-2.0791920E+001	-8.9351683E+000	2.2630535E+001	1.5674475E+002	3.632600172568345E+000	-1.2473600E-002	2.6893225E-001	-2.5160249E-002	-3.9222091E-003	1.000000000000000E+000	9	2.2435450E-005	9.9137958E-007	2.670251815528092E-005	0.0000000E+000	-1.0010460E+002	-4.0598027E-002	-1.7446695E-002	4.4188086E-002	-1.5674475E+002	2.561024039531225E-005
6.3095681E+005	6.1291862E+001	1.2107862E+001	6.2476337E+001	-1.1174583E+001	4.808483588363742E+000	-1.2366143E-002	2.5740536E-003	2.0833058E-002	7.8245049E-004	1.000000000000000E+000	11	9.4004837E-004	1.5046470E-005	5.409286247517209E-005	0.0000000E+000	-1.0015271E+002	1.5702605E-002	3.1019612E-003	1.6006060E-002	1.1174583E+001	2.739034431989118E-005
5.6234225E+005	6.3433041E+001	1.1340280E+001	6.4438751E+001	-1.0136007E+001	5.405470656725811E+000	-1.2287675E-002	2.8491332E-003	2.4957189E-002	7.7294564E-004	1.000000000000000E+000	11	2.4922248E-003	3.8675869E-005	5.487907192609014E-005	0.0000000E+000	-1.0007252E+002	1.5276410E-002	2.7310492E-003	1.5518612E-002	1.0136007E+001	7.862094509180443E-007
5.0120619E+005	6.4965019E+001	1.0669847E+001	6.5835396E+001	-9.3269825E+000	6.002470871753758E+000	-1.2207251E-002	3.0711719E-003	2.9760862E-002	7.8170525E-004	1.000000000000000E+000	11	4.7337124E-003	7.1902243E-005	5.518072926952058E-005	0.0000000E+000	-1.0009658E+002	1.4988585E-002	2.4617235E-003	1.5189397E-002	9.3269825E+000	3.016573434304367E-007
4.4668572E+005	6.6102242E+001	9.9787188E+000	6.6851189E+001	-8.5844870E+000	6.598473860038212E+000	-1.2118343E-002	3.1631142E-003	3.5706170E-002	7.9556298E-004	1.000000000000000E+000	11	7.7341869E-003	1.1569259E-004	5.547176091952618E-005	0.0000000E+000	-1.0014469E+002	1.4791013E-002	2.2328342E-003	1.4958597E-002	8.5844870E+000	2.910316500056019E-007
3.9810347E+005	6.7547737E+001	9.3904581E+000	6.8197342E+001	-7.9145088E+000	7.194480181700783E+000	-1.2047743E-002	3.0784318E-003	4.2573310E-002	8.0719055E-004	1.000000000000000E+000	11	1.1565723E-002	1.6959198E-004	5.661863946879425E-005	0.0000000E+000	-1.0010460E+002	1.4523655E-002	2.0190724E-003	1.4663328E-002	7.9145088E+000	1.146878549268070E-006
3.5480997E+005	6.8321213E+001	8.7798300E+000	6.8883041E+001	-7.3228378E+000	7.790493809996406E+000	-1.1974906E-002	2.9341956E-003	5.1090270E-002	8.3001476E-004	1.000000000000000E+000	11	1.6171435E-002	2.3476657E-004	5.744805549103573E-005	0.0000000E+000	-1.0008855E+002	1.4398954E-002	1.8503823E-003	1.4517361E-002	7.3228378E+000	8.294160222414789E-007
3.1622997E+005	6.8906631E+001	8.1129093E+000	6.9382584E+001	-6.7149606E+000	8.386474691651529E+000	-1.1949067E-002	3.1633058E-003	6.2035531E-002	8.4818929E-004	1.000000000000000E+000	11	2.1577505E-002	3.1099311E-004	5.809955158755636E-005	0.0000000E+000	-1.0014469E+002	1.4313969E-002	1.6852941E-003	1.4412839E-002	6.7149606E+000	6.514960965206320E-007
2.8183453E+005	6.9305389E+001	7.5047712E+000	6.9710533E+001	-6.1802235E+000	8.981488426594296E+000	-1.1950018E-002	2.8227142E-003	7.5246871E-002	8.7210059E-004	1.000000000000000E+000	11	2.7844237E-002	3.9942653E-004	5.877069935790820E-005	0.0000000E+000	-1.0011262E+002	1.4261663E-002	1.5443319E-003	1.4345034E-002	6.1802235E+000	6.711477703518368E-007
2.5118764E+005	6.9654938E+001	6.9468784E+000	7.0000496E+001	-5.6954322E+000	9.577471734868595E+000	-1.1959059E-002	3.0946319E-003	9.1207840E-002	8.9827506E-004	1.000000000000000E+000	11	3.4964323E-002	4.9948681E-004	5.875671190114938E-005	0.0000000E+000	-1.0012064E+002	1.4215091E-002	1.4177102E-003	1.4285613E-002	5.6954322E+000	-1.398745675881830E-008
2.2387173E+005	6.9926163E+001	6.4512615E+000	7.0223122E+001	-5.2710843E+000	1.017347045653150E+001	-1.1942057E-002	3.3099742E-003	1.1019863E-001	9.3004777E-004	1.000000000000000E+000	11	4.3024089E-002	6.1267696E-004	5.869118089899873E-005	0.0000000E+000	-1.0004044E+002	1.4180104E-002	1.3082309E-003	1.4240324E-002	5.2710843E+000	-6.553100215064318E-008
1.9954350E+005	7.0088028E+001	5.9949732E+000	7.0343948E+001	-4.8888898E+000	1.077048539152020E+001	-1.1960569E-002	2.7438130E-003	1.3304400E-001	9.6630969E-004	1.000000000000000E+000	11	5.1898573E-002	7.3778303E-004	6.090497676159268E-005	0.0000000E+000	-1.0012865E+002	1.4164145E-002	1.2115288E-003	1.4215864E-002	4.8888898E+000	2.213795862593947E-006
1.7783180E+005	7.0281425E+001	5.6186376E+000	7.0505661E+001	-4.5707808E+000	1.136648568653618E+001	-1.1970710E-002	3.1836070E-003	1.5928677E-001	1.0115649E-003	1.000000000000000E+000	11	6.1607178E-002	8.7379053E-004	6.010120884183562E-005	0.0000000E+000	-1.0009658E+002	1.4138151E-002	1.1302722E-003	1.4183259E-002	4.5707808E+000	-8.037679197570654E-007
1.5848613E+005	7.0418846E+001	5.2974553E+000	7.0617821E+001	-4.3021326E+000	1.196247051484534E+001	-1.2024681E-002	2.6760700E-003	1.8956649E-001	1.0667620E-003	1.000000000000000E+000	11	7.1980476E-002	1.0192962E-003	6.045653557585643E-005	0.0000000E+000	-1.0004846E+002	1.4120832E-002	1.0622792E-003	1.4160732E-002	4.3021326E+000	3.553267340208129E-007
1.4125594E+005	7.0516571E+001	5.0397549E+000	7.0696434E+001	-4.0879264E+000	1.255849016978755E+001	-1.1999662E-002	3.1774689E-003	2.2356510E-001	1.1361294E-003	1.000000000000000E+000	11	8.3039880E-002	1.1745979E-003	6.215471747398906E-005	0.0000000E+000	-1.0010460E+002	1.4108998E-002	1.0083572E-003	1.4144985E-002	4.0879264E+000	1.698181898132634E-006
1.2590930E+005	7.0642159E+001	4.8361788E+000	7.0807510E+001	-3.9163716E+000	1.315447318475344E+001	-1.1974773E-002	3.4091948E-003	2.6137257E-001	1.2192873E-003	1.000000000000000E+000	11	9.4961584E-002	1.3411230E-003	6.517137379213414E-005	0.0000000E+000	-1.0010460E+002	1.4089816E-002	9.6459204E-004	1.4122795E-002	3.9163716E+000	3.016656318145081E-006
1.1220494E+005	7.0720062E+001	4.6857715E+000	7.0875130E+001	-3.7907639E+000	1.374949329302763E+001	-1.2033088E-002	1.5281256E-003	3.0271021E-001	1.3231270E-003	1.000000000000000E+000	11	1.0778756E-001	1.5208094E-003	6.819979105076831E-005	0.0000000E+000	-1.0009658E+002	1.4078452E-002	9.3281036E-004	1.4109322E-002	3.7907639E+000	3.028417258634164E-006
1.0000371E+005	7.0748917E+001	4.5910382E+000	7.0897720E+001	-3.7128315E+000	1.420948832822614E+001	-1.1973635E-002	2.7725003E-003	3.4665149E-001	1.4536183E-003	1.000000000000000E+000	11	1.2157848E-001	1.7148433E-003	7.008920342918848E-005	0.0000000E+000	-1.0008855E+002	1.4075221E-002	9.1336912E-004	1.4104825E-002	3.7128315E+000	1.889412378420171E-006
8.9129305E+004	7.0804787E+001	4.5464854E+000	7.0950607E+001	-3.6740069E+000	1.466848861667677E+001	-1.1961331E-002	2.9143202E-003	3.9275691E-001	1.6127357E-003	1.000000000000000E+000	11	1.3654995E-001	1.9245776E-003	6.961615859573875E-005	0.0000000E+000	-1.0011262E+002	1.4065345E-002	9.0315763E-004	1.4094312E-002	3.6740069E+000	-4.730448334497312E-007
7.9433273E+004	7.0845421E+001	4.5507064E+000	7.0991425E+001	-3.6753056E+000	1.526347931163036E+001	-1.1943677E-002	2.7287654E-003	4.4029003E-001	1.8091922E-003	1.000000000000000E+000	11	1.3026696E-001	1.8349676E-003	6.547650118451889E-005	0.0000000E+000	-1.0006450E+002	1.4057238E-002	9.0295699E-004	1.4086208E-002	3.6753056E+000	-4.139657411219859E-006
7.0794977E+004	7.0877670E+001	4.6071744E+000	7.1027252E+001	-3.7190952E+000	1.585849304651492E+001	-1.1892688E-002	3.3857548E-003	4.8795867E-001	2.0530631E-003	1.000000000000000E+000	11	1.2975532E-001	1.8268385E-003	6.477374933330713E-005	0.0000000E+000	-1.0008855E+002	1.4049454E-002	9.1323943E-004	1.4079103E-002	3.7190952E+000	-7.027518512117627E-007
6.3093828E+004	7.0907593E+001	4.7239738E+000	7.1064781E+001	-3.8115013E+000	1.645349568812526E+001	-1.1902029E-002	3.2614302E-003	5.3398097E-001	2.3595646E-003	1.000000000000000E+000	11	1.2962295E-001	1.8240112E-003	6.797048240313113E-005	0.0000000E+000	-1.0012865E+002	1.4040543E-002	9.3540276E-004	1.4071668E-002	3.8115013E+000	3.196733069824002E-006
5.6237012E+004	7.0939651E+001	4.8917208E+000	7.1108109E+001	-3.9446485E+000	1.704847240974777E+001	-1.1914109E-002	3.0902023E-003	5.7854378E-001	2.7379235E-003	1.000000000000000E+000	11	1.2958726E-001	1.8223979E-003	7.041036751920991E-005	0.0000000E+000	-1.0013667E+002	1.4029778E-002	9.6743862E-004	1.4063094E-002	3.9446485E+000	2.439885116078787E-006
5.0122477E+004	7.0954956E+001	5.1126809E+000	7.1138916E+001	-4.1213422E+000	1.764348369135405E+001	-1.1897406E-002	3.2189933E-003	6.2106764E-001	3.2079073E-003	1.000000000000000E+000	11	1.2946925E-001	1.8199497E-003	7.410228672703508E-005	0.0000000E+000	-1.0005648E+002	1.4020653E-002	1.0102625E-003	1.4057004E-002	4.1213422E+000	3.691919207825161E-006
4.4666715E+004	7.0988777E+001	5.3982682E+000	7.1193733E+001	-4.3486290E+000	1.823847401290550E+001	-1.1885530E-002	3.4062264E-003	6.6005737E-001	3.7949586E-003	1.000000000000000E+000	11	1.2939982E-001	1.8175732E-003	7.305464581655300E-005	0.0000000E+000	-1.0012865E+002	1.4005743E-002	1.0650522E-003	1.4046180E-002	4.3486290E+000	-1.047640910482081E-006
3.9814063E+004	7.1009422E+001	5.7482214E+000	7.1241699E+001	-4.6280088E+000	1.883348537448910E+001	-1.1902122E-002	3.1856794E-003	6.9542480E-001	4.5273970E-003	1.000000000000000E+000	11	1.2934849E-001	1.8156288E-003	7.328760760771305E-005	0.0000000E+000	-1.0004846E+002	1.3990957E-002	1.1325697E-003	1.4036723E-002	4.6280088E+000	2.329617911600546E-007
3.5480996E+004	7.1040520E+001	6.1734099E+000	7.1308250E+001	-4.9665174E+000	1.929248771633138E+001	-1.1861611E-002	3.6615764E-003	7.2660637E-001	5.4459027E-003	1.000000000000000E+000	11	1.4045478E-001	1.9696848E-003	7.513991674894997E-005	0.0000000E+000	-1.0010460E+002	1.3970970E-002	1.2140750E-003	1.4023622E-002	4.9665174E+000	1.852309141236924E-006
3.1621143E+004	7.1070839E+001	6.6660933E+000	7.1382774E+001	-5.3583841E+000	1.988849315795233E+001	-1.1893788E-002	3.3477871E-003	7.5504214E-001	6.5845652E-003	1.000000000000000E+000	11	1.3028407E-001	1.8251472E-003	7.714908174276287E-005	0.0000000E+000	-1.0008855E+002	1.3947763E-002	1.3082313E-003	1.4008982E-002	5.3583841E+000	2.009164993812897E-006
2.8188096E+004	7.1117783E+001	7.2380166E+000	7.1485161E+001	-5.8112717E+000	2.034848699314171E+001	-1.1900332E-002	3.0859199E-003	7.8007221E-001	7.9972772E-003	1.000000000000000E+000	11	1.3978280E-001	1.9554100E-003	7.592272150747078E-005	0.0000000E+000	-1.0008855E+002	1.3917026E-002	1.4164061E-003	1.3988918E-002	5.8112717E+000	-1.226360235292095E-006
2.5116910E+004	7.1166794E+001	7.8981738E+000	7.1603729E+001	-6.3328371E+000	2.094549304814427E+001	-1.1880962E-002	3.4531276E-003	8.0228233E-001	9.7613372E-003	1.000000000000000E+000	11	1.3013247E-001	1.8173979E-003	7.505040596237005E-005	0.0000000E+000	-1.0009658E+002	1.3880532E-002	1.5404776E-003	1.3965753E-002	6.3328371E+000	-8.723155451007241E-007
2.2389027E+004	7.1221313E+001	8.6437902E+000	7.1743927E+001	-6.9198713E+000	2.140547595001408E+001	-1.1878353E-002	3.3470427E-003	8.2239544E-001	1.1937650E-002	1.000000000000000E+000	11	1.3774955E-001	1.9200169E-003	7.666637326481092E-005	0.0000000E+000	-1.0006450E+002	1.3836930E-002	1.6793219E-003	1.3938462E-002	6.9198713E+000	1.615967302440868E-006
1.9948783E+004	7.1280861E+001	9.4992447E+000	7.1911034E+001	-7.5907974E+000	2.200149197832798E+001	-1.1882715E-002	3.3762620E-003	8.3987504E-001	1.4655537E-002	1.000000000000000E+000	11	1.2963265E-001	1.8026809E-003	8.124235756134214E-005	0.0000000E+000	-1.0009658E+002	1.3784210E-002	1.8369530E-003	1.3906072E-002	7.5907974E+000	4.575984296531220E-006
1.7786895E+004	7.1363060E+001	1.0463846E+001	7.2126129E+001	-8.3417406E+000	2.246149114685250E+001	-1.1873766E-002	3.3457391E-003	8.5512316E-001	1.7998077E-002	1.000000000000000E+000	11	1.3540345E-001	1.8773149E-003	8.307782587783165E-005	0.0000000E+000	-1.0011262E+002	1.3717919E-002	2.0114353E-003	1.3864601E-002	8.3417406E+000	1.835468316489509E-006
1.5847686E+004	7.1476234E+001	1.1552629E+001	7.2403831E+001	-9.1812572E+000	2.292148407534114E+001	-1.1862002E-002	3.4025067E-003	8.6930752E-001	2.2131560E-002	1.000000000000000E+000	11	1.4063957E-001	1.9424328E-003	8.534199743775146E-005	0.0000000E+000	-1.0005648E+002	1.3634479E-002	2.2037267E-003	1.3811423E-002	9.1812572E+000	2.264171559919812E-006
1.4121879E+004	7.1577988E+001	1.2774852E+001	7.2709045E+001	-1.0119294E+001	2.351649130359874E+001	-1.1866682E-002	3.3950596E-003	8.8220960E-001	2.7233699E-002	1.000000000000000E+000	11	1.2974298E-001	1.7844132E-003	8.631275492016640E-005	0.0000000E+000	-1.0010460E+002	1.3539499E-002	2.4164564E-003	1.3753447E-002	1.0119294E+001	9.707574824149401E-007
1.2590932E+004	7.1717979E+001	1.4142675E+001	7.3099136E+001	-1.1155507E+001	2.397648791215033E+001	-1.1865190E-002	3.3848237E-003	8.9378011E-001	3.3455640E-002	1.000000000000000E+000	11	1.3321877E-001	1.8224396E-003	8.619786438651499E-005	0.0000000E+000	-1.0004044E+002	1.3421576E-002	2.6467142E-003	1.3680052E-002	1.1155507E+001	-1.148905336514113E-007
1.1217711E+004	7.1871033E+001	1.5678897E+001	7.3561356E+001	-1.2306451E+001	2.443548113389988E+001	-1.1869777E-002	3.3518816E-003	9.0489966E-001	4.1108530E-002	1.000000000000000E+000	11	1.3614774E-001	1.8508051E-003	8.574443368091468E-005	0.0000000E+000	-1.0001638E+002	1.3281723E-002	2.8974507E-003	1.3594095E-002	1.2306451E+001	-4.534307056003122E-007
1.0002229E+004	7.2062843E+001	1.7386702E+001	7.4130630E+001	-1.3564591E+001	2.489547934246366E+001	-1.1863736E-002	3.2422587E-003	9.1517913E-001	5.0343700E-002	1.000000000000000E+000	11	1.3857287E-001	1.8693066E-003	8.468512135796158E-005	0.0000000E+000	-1.0012865E+002	1.3113420E-002	3.1638932E-003	1.3489701E-002	1.3564591E+001	-1.059312322953095E-006
8.9149297E+003	7.2283752E+001	1.9298037E+001	7.4815475E+001	-1.4947969E+001	2.537789928537677E+001	-1.1836667E-002	3.8015372E-003	9.2510080E-001	6.1550621E-002	1.000000000000000E+000	11	1.4053665E-001	1.8784435E-003	8.493906864649034E-005	0.0000000E+000	-1.0011262E+002	1.2913912E-002	3.4477061E-003	1.3366219E-002	1.4947969E+001	2.539472885287593E-007
7.9439976E+003	7.2526527E+001	2.1434084E+001	7.5627487E+001	-1.6464224E+001	2.605797889101086E+001	-1.1811034E-002	4.1369186E-003	9.3470830E-001	7.5080402E-002	1.000000000000000E+000	11	1.2948394E-001	1.7121279E-003	8.894454573841196E-005	0.0000000E+000	-1.0007252E+002	1.2680533E-002	3.7475342E-003	1.3222706E-002	1.6464224E+001	4.005477091921619E-006
7.0822334E+003	7.2802940E+001	2.3784445E+001	7.6589607E+001	-1.8092018E+001	2.663485243843752E+001	-1.1795560E-002	4.1462225E-003	9.4483703E-001	9.1117799E-002	1.000000000000000E+000	11	1.3055664E-001	1.7046261E-003	8.983160508642323E-005	0.0000000E+000	-1.0006450E+002	1.2411070E-002	4.0546493E-003	1.3056601E-002	1.8092018E+001	8.870593480112671E-007
6.3077344E+003	7.3136078E+001	2.6438931E+001	7.7768265E+001	-1.9875090E+001	2.726855292179971E+001	-1.1784542E-002	3.9625261E-003	9.5433939E-001	1.1030261E-001	1.000000000000000E+000	11	1.3135469E-001	1.6890527E-003	9.049461290390657E-005	0.0000000E+000	-1.0003242E+002	1.2092800E-002	4.3715867E-003	1.2858716E-002	1.9875090E+001	6.630078174833451E-007
5.6210552E+003	7.3521797E+001	2.9368540E+001	7.9170486E+001	-2.1774410E+001	2.796925919511705E+001	-1.1781149E-002	3.9519151E-003	9.6409523E-001	1.3266550E-001	1.000000000000000E+000	11	1.3191153E-001	1.6661705E-003	9.028073231198424E-005	0.0000000E+000	-1.0004846E+002	1.1729769E-002	4.6854974E-003	1.2630969E-002	2.1774410E+001	-2.138805919223310E-007
5.0116035E+003	7.3954247E+001	3.2603863E+001	8.0822289E+001	-2.3791019E+001	2.872967891127337E+001	-1.1765806E-002	4.1480814E-003	9.7403461E-001	1.5850763E-001	1.000000000000000E+000	11	1.3226357E-001	1.6364739E-003	9.221227729699200E-005	0.0000000E+000	-1.0004044E+002	1.1321418E-002	4.9912208E-003	1.2372824E-002	2.3791019E+001	1.931544985007757E-006
4.4664292E+003	7.4442688E+001	3.6203674E+001	8.2779343E+001	-2.5935020E+001	2.948968121404323E+001	-1.1767036E-002	3.8605330E-003	9.8425364E-001	1.8826447E-001	1.000000000000000E+000	11	1.3245663E-001	1.6001170E-003	9.311867310548809E-005	0.0000000E+000	-1.0008855E+002	1.0863708E-002	5.2833417E-003	1.2080309E-002	2.5935020E+001	9.063958084960940E-007
3.9812742E+003	7.5008438E+001	4.0192764E+001	8.5098320E+001	-2.8184332E+001	3.024966594346915E+001	-1.1753241E-002	4.1890251E-003	9.9460393E-001	2.2187273E-001	1.000000000000000E+000	11	1.3250925E-001	1.5571312E-003	9.520684532342258E-005	0.0000000E+000	-1.0016073E+002	1.0357815E-002	5.5501652E-003	1.1751113E-002	2.8184332E+001	2.088172217934491E-006
