EC-Lab ASCII FILE
Nb header lines : 75                          

Potentio Electrochemical Impedance Spectroscopy

Run on channel : 2 (SN 20919)
User : 
CE vs. WE compliance from -10 V to 10 V
Electrode connection : standard
Ewe ctrl range : min = -10.00 V, max = 10.00 V
Safety Limits :
	Do not start on E overload
Acquisition started on : 01/24/2020 09:53:32
Technique started on : 01/24/2020 09:53:33
Saved on :
	File : DE_40_10_60.mpr
	Directory : P:\Chemistry\Data\VMP3\Kyler\DOE\DE_40\2ND 60C\
	Host : 10.0.4.99
Device : VMP3 (SN 0183)
Address : USB
EC-Lab for windows v11.33 (software)
Internet server v11.32 (firmware)
Command interpretor v11.33 (firmware)
Electrode material : 
Initial state : 
Electrolyte : 
Comments : 
Electrode surface area : 0.001 cm²
Characteristic mass : 0.001 g
Equivalent Weight : 0.000 g/eq.
Density : 0.000 g/cm3
Record Analogic IN 1
Cycle Definition : Charge/Discharge alternance
External device configuration :
   device type : Thermostat
   device name : Other
   Analog OUT : 
      mode : E/V
      unit : T/°C
      max : 400.000 at 5.000 V
      min : -100.000 at 0.000 V
      current : 0.000
   Analog IN 1 : 
      unit : T/°C
      max : 400.000 at 5.000 V
      min : -100.000 at 0.000 V
Mode                Single sine         
E (V)               0.0000              
vs.                 Eoc                 
tE (h:m:s)          0:00:0.0000         
record              0                   
dI                  1.000               
unit dI             mA                  
dt (s)              0.000               
fi                  1.000               
unit fi             MHz                 
ff                  1.000               
unit ff             Hz                  
Nd                  20                  
Points              per decade          
spacing             Logarithmic         
Va (mV)             128.0               
pw                  0.50                
Na                  3                   
corr                0                   
E range min (V)     -10.000             
E range max (V)     10.000              
I Range             Auto                
Bandwidth           5                   
nc cycles           0                   
goto Ns'            0                   
nr cycles           0                   
inc. cycle          1                   

freq/Hz	Re(Z)/Ohm	-Im(Z)/Ohm	|Z|/Ohm	Phase(Z)/deg	time/s	<Ewe>/V	<I>/mA	Cs/µF	Cp/µF	cycle number	I Range	|Ewe|/V	|I|/A	(Q-Qo)/mA.h	Analog OUT/V	Analog IN 1/V	Re(Y)/Ohm-1	Im(Y)/Ohm-1	|Y|/Ohm-1	Phase(Y)/deg	dq/mA.h	
1.0000186E+006	7.2032875E+001	3.5919167E+001	8.0491745E+001	-2.6503122E+001	1.746479176246794E+000	5.7257403E-002	1.7362619E-003	4.4308375E-003	8.8233931E-004	1.000000000000000E+000	11	1.2938897E-003	1.6074813E-005	3.110761882101845E-007	0.0000000E+000	-1.0009383E+002	1.1118036E-002	5.5440045E-003	1.2423635E-002	2.6503122E+001	3.110761882101845E-007
8.9124669E+005	7.4949532E+001	3.3822884E+001	8.2227852E+001	-2.4288488E+001	2.342476617923239E+000	5.7685047E-002	1.7892288E-003	5.2797282E-003	8.9329510E-004	1.000000000000000E+000	11	2.2286908E-003	2.7103843E-005	5.140385307256818E-007	0.0000000E+000	-1.0010986E+002	1.1084881E-002	5.0023347E-003	1.2161329E-002	2.4288488E+001	2.029623425154972E-007
7.9433269E+005	7.8788605E+001	3.2230392E+001	8.5126038E+001	-2.2248207E+001	2.937482939480105E+000	5.8035396E-002	1.8399653E-003	6.2165880E-003	8.9116569E-004	1.000000000000000E+000	11	3.6272730E-003	4.2610616E-005	7.278693243297311E-007	0.0000000E+000	-1.0005373E+002	1.0872729E-002	4.4477535E-003	1.1747287E-002	2.2248207E+001	2.138307936040493E-007
7.0794981E+005	8.2770844E+001	3.0846251E+001	8.8331779E+001	-2.0438940E+001	3.532480087742442E+000	5.8320273E-002	1.7067143E-003	7.2881160E-003	8.8876323E-004	1.000000000000000E+000	11	5.6113326E-003	6.3525637E-005	9.029738138633547E-007	0.0000000E+000	-1.0010986E+002	1.0608242E-002	3.9533786E-003	1.1320954E-002	2.0438940E+001	1.751044895336236E-007
6.3095681E+005	8.6526115E+001	2.9641813E+001	9.1462593E+001	-1.8910255E+001	4.128491396055324E+000	5.8584776E-002	1.7502030E-003	8.5097291E-003	8.9379569E-004	1.000000000000000E+000	11	8.2375659E-003	9.0064859E-005	1.318169256502491E-006	0.0000000E+000	-1.0007779E+002	1.0343325E-002	3.5433804E-003	1.0933432E-002	1.8910255E+001	4.151954426391362E-007
5.6234225E+005	8.9983902E+001	2.8348801E+001	9.4343826E+001	-1.7486670E+001	4.724487371015130E+000	5.8776531E-002	1.7368228E-003	9.9835442E-003	9.0141990E-004	1.000000000000000E+000	11	1.1547037E-002	1.2239315E-004	1.841555565875347E-006	0.0000000E+000	-1.0009383E+002	1.0109690E-002	3.1849875E-003	1.0599528E-002	1.7486670E+001	5.233863093728562E-007
5.0120619E+005	9.3120384E+001	2.7055962E+001	9.6971291E+001	-1.6201128E+001	5.321472946059657E+000	5.8946162E-002	1.8680319E-003	1.1736558E-002	9.1365102E-004	1.000000000000000E+000	11	1.5545047E-002	1.6030566E-004	2.174673846660880E-006	0.0000000E+000	-1.0007779E+002	9.9028097E-003	2.8772436E-003	1.0312331E-002	1.6201128E+001	3.331182807855333E-007
4.4668572E+005	9.5852226E+001	2.5682705E+001	9.9233315E+001	-1.4999541E+001	5.917492281034356E+000	5.9055891E-002	1.7362678E-003	1.3873221E-002	9.2927407E-004	1.000000000000000E+000	11	2.0262713E-002	2.0419263E-004	2.920858529781172E-006	0.0000000E+000	-1.0009383E+002	9.7339069E-003	2.6081090E-003	1.0077260E-002	1.4999541E+001	7.461846831202920E-007
3.9810347E+005	9.8285133E+001	2.4167429E+001	1.0121281E+002	-1.3814450E+001	6.512488842621678E+000	5.9112530E-002	1.8042887E-003	1.6542219E-002	9.4315637E-004	1.000000000000000E+000	11	2.5730131E-002	2.5421815E-004	3.545387324873850E-006	0.0000000E+000	-1.0010986E+002	9.5943799E-003	2.3591716E-003	9.8801730E-003	1.3814450E+001	6.245287950926773E-007
3.5480997E+005	1.0031149E+002	2.2664364E+001	1.0284002E+002	-1.2731628E+001	7.108489777630894E+000	5.9123062E-002	1.8750979E-003	1.9791594E-002	9.6126593E-004	1.000000000000000E+000	11	3.1954110E-002	3.1071668E-004	4.060936607666210E-006	0.0000000E+000	-1.0004572E+002	9.4847614E-003	2.1429856E-003	9.7238412E-003	1.2731628E+001	5.155492827923602E-007
3.1622997E+005	1.0206238E+002	2.1120644E+001	1.0422481E+002	-1.1691679E+001	7.703489699197235E+000	5.9107251E-002	1.8390444E-003	2.3829227E-002	9.7854785E-004	1.000000000000000E+000	11	3.9015647E-002	3.7434127E-004	3.554868325009011E-006	0.0000000E+000	-1.0011788E+002	9.3955770E-003	1.9443075E-003	9.5946444E-003	1.1691679E+001	-5.060682826571994E-007
2.8183453E+005	1.0354402E+002	1.9607740E+001	1.0538419E+002	-1.0722916E+001	8.299484580842545E+000	5.9079923E-002	1.6831218E-003	2.8800391E-002	9.9701690E-004	1.000000000000000E+000	11	4.6982557E-002	4.4582167E-004	4.467963721583752E-006	0.0000000E+000	-1.0011788E+002	9.3233949E-003	1.7655361E-003	9.4890893E-003	1.0722916E+001	9.130953965747419E-007
2.5118764E+005	1.0473728E+002	1.8178749E+001	1.0630318E+002	-9.8464622E+000	8.894490049133310E+000	5.9077535E-002	1.7372044E-003	3.4854420E-002	1.0192797E-003	1.000000000000000E+000	11	5.5882495E-002	5.2568980E-004	5.468151257321652E-006	0.0000000E+000	-1.0009383E+002	9.2684859E-003	1.6086869E-003	9.4070565E-003	9.8464622E+000	1.000187535737900E-006
2.2387173E+005	1.0571764E+002	1.6812042E+001	1.0704609E+002	-9.0359554E+000	9.490474877384258E+000	5.9069462E-002	1.5314749E-003	4.2286370E-002	1.0430370E-003	1.000000000000000E+000	11	6.5758251E-002	6.1429851E-004	5.971017562292723E-006	0.0000000E+000	-1.0014193E+002	9.2258388E-003	1.4671648E-003	9.3417708E-003	9.0359554E+000	5.028663049710704E-007
1.9954350E+005	1.0652969E+002	1.5563735E+001	1.0766061E+002	-8.3119717E+000	1.008747450579540E+001	5.9073117E-002	1.6258894E-003	5.1247034E-002	1.0709834E-003	1.000000000000000E+000	11	7.6540522E-002	7.1094272E-004	6.335302801013717E-006	0.0000000E+000	-1.0006175E+002	9.1908798E-003	1.3427656E-003	9.2884488E-003	8.3119717E+000	3.642852387209945E-007
1.7783180E+005	1.0718938E+002	1.4447442E+001	1.0815865E+002	-7.6763077E+000	1.068247965400224E+001	5.9074350E-002	1.5666082E-003	6.1946929E-002	1.1052975E-003	1.000000000000000E+000	11	8.8218518E-002	8.1563997E-004	7.046928152978782E-006	0.0000000E+000	-1.0013391E+002	9.1628227E-003	1.2350043E-003	9.2456779E-003	7.6763077E+000	7.116253519650647E-007
1.5848613E+005	1.0772086E+002	1.3444086E+001	1.0855656E+002	-7.1140065E+000	1.127848109565093E+001	5.9086412E-002	1.5019350E-003	7.4696049E-002	1.1456396E-003	1.000000000000000E+000	11	1.0073540E-001	9.2795305E-004	8.330423230515509E-006	0.0000000E+000	-1.0007779E+002	9.1408715E-003	1.1408251E-003	9.2117870E-003	7.1140065E+000	1.283495077536727E-006
1.4125594E+005	1.0814848E+002	1.2579491E+001	1.0887763E+002	-6.6346502E+000	1.187447592397803E+001	5.9112083E-002	1.7295979E-003	8.9567482E-002	1.1956365E-003	1.000000000000000E+000	11	1.1411732E-001	1.0481246E-003	7.832729587907023E-006	0.0000000E+000	-1.0006977E+002	9.1231139E-003	1.0611719E-003	9.1846231E-003	6.6346502E+000	-4.976936426084855E-007
1.2590930E+005	1.0851189E+002	1.1839191E+001	1.0915583E+002	-6.2266283E+000	1.233448159918771E+001	5.9096217E-002	1.5634521E-003	1.0676780E-001	1.2560025E-003	1.000000000000000E+000	11	1.2849055E-001	1.1771296E-003	7.439323779564196E-006	0.0000000E+000	-1.0010986E+002	9.1071697E-003	9.9363795E-004	9.1612143E-003	6.2266283E+000	-3.934058083428275E-007
1.1220494E+005	1.0879823E+002	1.1222401E+001	1.0937548E+002	-5.8891606E+000	1.293048656082829E+001	5.9114616E-002	1.3540034E-003	1.2639281E-001	1.3306198E-003	1.000000000000000E+000	11	1.2912115E-001	1.1805311E-003	7.454253147000498E-006	0.0000000E+000	-1.0010986E+002	9.0945633E-003	9.3809282E-004	9.1428170E-003	5.8891606E+000	1.492936743630240E-008
1.0000371E+005	1.0903690E+002	1.0726771E+001	1.0956327E+002	-5.6185327E+000	1.352648365576169E+001	5.9190866E-002	1.7130590E-003	1.4836620E-001	1.4221423E-003	1.000000000000000E+000	11	1.2970676E-001	1.1838526E-003	6.149043298817964E-006	0.0000000E+000	-1.0005373E+002	9.0832980E-003	8.9359150E-004	9.1271466E-003	5.6185327E+000	-1.305209848182535E-006
8.9129305E+004	1.0922330E+002	1.0348117E+001	1.0971242E+002	-5.4122047E+000	1.412149064402911E+001	5.9229493E-002	1.7370338E-003	1.7255928E-001	1.5351449E-003	1.000000000000000E+000	11	1.2963422E-001	1.1815820E-003	4.978109775169287E-006	0.0000000E+000	-1.0006175E+002	9.0741040E-003	8.5970561E-004	9.1147386E-003	5.4122047E+000	-1.170933523648677E-006
7.9433273E+004	1.0938328E+002	1.0090630E+001	1.0984772E+002	-5.2706299E+000	1.471747725902242E+001	5.9233353E-002	1.5136456E-003	1.9856350E-001	1.6755362E-003	1.000000000000000E+000	11	1.2957609E-001	1.1795973E-003	6.691965526661887E-006	0.0000000E+000	-1.0001364E+002	9.0650208E-003	8.3625002E-004	9.1035115E-003	5.2706299E+000	1.713855751492600E-006
7.0794977E+004	1.0950996E+002	9.9505882E+000	1.0996111E+002	-5.1919060E+000	1.531349531401065E+001	5.9290957E-002	1.8630368E-003	2.2592741E-001	1.8500703E-003	1.000000000000000E+000	11	1.2955859E-001	1.1782220E-003	8.816090285778045E-006	0.0000000E+000	-1.0005373E+002	9.0568131E-003	8.2294457E-004	9.0941247E-003	5.1919060E+000	2.124124759116158E-006
6.3093828E+004	1.0961531E+002	9.9216375E+000	1.1006342E+002	-5.1719337E+000	1.590947107560351E+001	5.9299514E-002	1.7821935E-003	2.5424352E-001	2.0660015E-003	1.000000000000000E+000	11	1.2940499E-001	1.1757312E-003	8.309445710839807E-006	0.0000000E+000	-1.0010986E+002	9.0486808E-003	8.1902539E-004	9.0856710E-003	5.1719337E+000	-5.066445749382377E-007
5.6237012E+004	1.0971016E+002	1.0010855E+001	1.1016595E+002	-5.2136989E+000	1.650649281064398E+001	5.9315994E-002	1.8702836E-003	2.8270060E-001	2.3343950E-003	1.000000000000000E+000	11	1.2937215E-001	1.1743389E-003	1.117668839459980E-005	0.0000000E+000	-1.0013391E+002	9.0396600E-003	8.2485279E-004	9.0772156E-003	5.2136989E+000	2.867242683759995E-006
5.0122477E+004	1.0979318E+002	1.0217803E+001	1.1026762E+002	-5.3168650E+000	1.710147990557016E+001	5.9329845E-002	1.8046800E-003	3.1076357E-001	2.6683891E-003	1.000000000000000E+000	11	1.2928684E-001	1.1724824E-003	1.106442765559122E-005	0.0000000E+000	-1.0010986E+002	9.0298271E-003	8.4035256E-004	9.0688458E-003	5.3168650E+000	-1.122607390085870E-007
4.4666715E+004	1.0986848E+002	1.0554379E+001	1.1037426E+002	-5.4872103E+000	1.756047539404244E+001	5.9335645E-002	1.8431568E-003	3.3760080E-001	3.0869753E-003	1.000000000000000E+000	11	1.4010176E-001	1.2693336E-003	1.156422498363018E-005	0.0000000E+000	-1.0007779E+002	9.0185655E-003	8.6635735E-004	9.0600830E-003	5.4872103E+000	4.997973280389689E-007
3.9814063E+004	1.0993166E+002	1.1011500E+001	1.1048178E+002	-5.7200537E+000	1.815648824904929E+001	5.9375707E-002	1.9187916E-003	3.6302552E-001	3.6061918E-003	1.000000000000000E+000	11	1.3026047E-001	1.1790221E-003	1.116063788074017E-005	0.0000000E+000	-1.0005373E+002	9.0061976E-003	9.0212171E-004	9.0512661E-003	5.7200537E+000	-4.035871028900138E-007
3.5480996E+004	1.1001863E+002	1.1611167E+001	1.1062965E+002	-6.0245910E+000	1.861649680419941E+001	5.9356414E-002	1.8087749E-003	3.8632113E-001	4.2555644E-003	1.000000000000000E+000	11	1.3951942E-001	1.2611395E-003	1.114460994340738E-005	0.0000000E+000	-1.0007779E+002	8.9892447E-003	9.4870856E-004	9.0391682E-003	6.0245910E+000	-1.602793733278860E-008
3.1621143E+004	1.1009379E+002	1.2336452E+001	1.1078281E+002	-6.3935528E+000	1.921248821917106E+001	5.9373677E-002	1.7894414E-003	4.0799260E-001	5.0592734E-003	1.000000000000000E+000	11	1.3001698E-001	1.1736206E-003	1.066390267290667E-005	0.0000000E+000	-1.0006175E+002	8.9705298E-003	1.0051840E-003	9.0266718E-003	6.3935528E+000	-4.807072705007166E-007
2.8188096E+004	1.1017978E+002	1.3211234E+001	1.1096901E+002	-6.8374729E+000	1.967248522772570E+001	5.9376061E-002	1.7847959E-003	4.2737687E-001	6.0575129E-003	1.000000000000000E+000	11	1.3748881E-001	1.2389838E-003	1.109257114540863E-005	0.0000000E+000	-1.0013391E+002	8.9474339E-003	1.0728524E-003	9.0115247E-003	6.8374729E+000	4.286684725019668E-007
2.5116910E+004	1.1027174E+002	1.4245867E+001	1.1118813E+002	-7.3611979E+000	2.026847514932160E+001	5.9387192E-002	1.8204774E-003	4.4480026E-001	7.3017324E-003	1.000000000000000E+000	11	1.2972549E-001	1.1667206E-003	1.070913295154201E-005	0.0000000E+000	-1.0005373E+002	8.9196404E-003	1.1523170E-003	8.9937653E-003	7.3611979E+000	-3.834381938666218E-007
2.2389027E+004	1.1038528E+002	1.5449577E+001	1.1146120E+002	-7.9673901E+000	2.072747317116591E+001	5.9390340E-002	1.7721585E-003	4.6011704E-001	8.8400375E-003	1.000000000000000E+000	11	1.3544938E-001	1.2152155E-003	1.048416711326475E-005	0.0000000E+000	-1.0010986E+002	8.8851294E-003	1.2435670E-003	8.9717321E-003	7.9673901E+000	-2.249658382772588E-007
1.9948783E+004	1.1051241E+002	1.6842531E+001	1.1178848E+002	-8.6654243E+000	2.118748804632924E+001	5.9392337E-002	1.8388806E-003	4.7369233E-001	1.0752686E-002	1.000000000000000E+000	11	1.4060678E-001	1.2577930E-003	9.723878464021254E-006	0.0000000E+000	-1.0002968E+002	8.8433521E-003	1.3477621E-003	8.9454651E-003	8.6654243E+000	-7.602886492434974E-007
1.7786895E+004	1.1064017E+002	1.8425211E+001	1.1216388E+002	-9.4548559E+000	2.178349303462892E+001	5.9400912E-002	1.8448245E-003	4.8563227E-001	1.3104681E-002	1.000000000000000E+000	11	1.2974511E-001	1.1567459E-003	1.209033809490939E-005	0.0000000E+000	-1.0004572E+002	8.7944111E-003	1.4645574E-003	8.9155259E-003	9.4548559E+000	2.366459630888131E-006
1.5847686E+004	1.1081170E+002	2.0236326E+001	1.1264432E+002	-1.0349257E+001	2.224349236316630E+001	5.9399478E-002	1.8264260E-003	4.9627525E-001	1.6016491E-002	1.000000000000000E+000	11	1.3324767E-001	1.1829063E-003	1.186894387038451E-005	0.0000000E+000	-1.0006977E+002	8.7330723E-003	1.5948253E-003	8.8775009E-003	1.0349257E+001	-2.213942245248796E-007
1.4121879E+004	1.1100790E+002	2.2287271E+001	1.1322312E+002	-1.1352455E+001	2.270348326498060E+001	5.9390530E-002	1.7491136E-003	5.0567412E-001	1.9593602E-002	1.000000000000000E+000	11	1.3621426E-001	1.2030604E-003	1.197239596345591E-005	0.0000000E+000	-1.0005373E+002	8.6593172E-003	1.7385480E-003	8.8321185E-003	1.1352455E+001	1.034520930714063E-007
1.2590932E+004	1.1123676E+002	2.4586018E+001	1.1392141E+002	-1.2463382E+001	2.316347115350072E+001	5.9406541E-002	1.7881406E-003	5.1413131E-001	2.3946375E-002	1.000000000000000E+000	11	1.3867772E-001	1.2173104E-003	1.319060804378953E-005	0.0000000E+000	-1.0005373E+002	8.5711209E-003	1.8944255E-003	8.7779816E-003	1.2463382E+001	1.218212080333615E-006
1.1217711E+004	1.1149877E+002	2.7188534E+001	1.1476582E+002	-1.3703911E+001	2.362249005530612E+001	5.9399609E-002	1.7782920E-003	5.2183127E-001	2.9287115E-002	1.000000000000000E+000	11	1.4070693E-001	1.2260352E-003	1.280640843734485E-005	0.0000000E+000	-1.0012590E+002	8.4653515E-003	2.0642425E-003	8.7133963E-003	1.3703911E+001	-3.841996064446797E-007
1.0002229E+004	1.1179182E+002	3.0088051E+001	1.1577003E+002	-1.5063830E+001	2.421949432368274E+001	5.9407827E-002	1.8232648E-003	5.2884603E-001	3.5721116E-002	1.000000000000000E+000	11	1.2941495E-001	1.1178622E-003	1.477675852679466E-005	0.0000000E+000	-1.0009383E+002	8.3409920E-003	2.2449244E-003	8.6378139E-003	1.5063830E+001	1.970350089449817E-006
8.9149297E+003	1.1215671E+002	3.3351730E+001	1.1701054E+002	-1.6560753E+001	2.470189981328440E+001	5.9421308E-002	1.8548586E-003	5.3528345E-001	4.3488119E-002	1.000000000000000E+000	11	1.3058451E-001	1.1160064E-003	1.512890630780991E-005	0.0000000E+000	-1.0014995E+002	8.1917243E-003	2.4359503E-003	8.5462388E-003	1.6560753E+001	3.521477810152432E-007
7.9439976E+003	1.1257022E+002	3.7007679E+001	1.1849735E+002	-1.8198380E+001	2.522799525159644E+001	5.9422407E-002	1.9245512E-003	5.4136378E-001	5.2802633E-002	1.000000000000000E+000	11	1.3148896E-001	1.1096363E-003	1.538757493637321E-005	0.0000000E+000	-1.0011788E+002	8.0168955E-003	2.6355698E-003	8.4390072E-003	1.8198380E+001	2.586686285633047E-007
7.0822334E+003	1.1304929E+002	4.1071133E+001	1.2027876E+002	-1.9966228E+001	2.580487399900449E+001	5.9439447E-002	1.9921998E-003	5.4715860E-001	6.3798234E-002	1.000000000000000E+000	11	1.3215926E-001	1.0987747E-003	1.640776833807144E-005	0.0000000E+000	-1.0007779E+002	7.8142984E-003	2.8389569E-003	8.3140200E-003	1.9966228E+001	1.020193401698228E-006
6.3077344E+003	1.1360346E+002	4.5637375E+001	1.2242760E+002	-2.1886572E+001	2.643952466911287E+001	5.9445653E-002	1.8448232E-003	5.5287391E-001	7.6826088E-002	1.000000000000000E+000	11	1.3264599E-001	1.0834648E-003	1.585174831035288E-005	0.0000000E+000	-1.0006175E+002	7.5793667E-003	3.0448227E-003	8.1680929E-003	2.1886572E+001	-5.560200277185577E-007
5.6210552E+003	1.1425277E+002	5.0708309E+001	1.2500011E+002	-2.3932875E+001	2.714027616908425E+001	5.9450779E-002	1.8626640E-003	5.5837137E-001	9.1888376E-002	1.000000000000000E+000	11	1.3296580E-001	1.0637254E-003	1.682304448651848E-005	0.0000000E+000	-1.0003770E+002	7.3121642E-003	3.2453258E-003	7.9999929E-003	2.3932875E+001	9.712961761656017E-007
5.0116035E+003	1.1499590E+002	5.6320961E+001	1.2804729E+002	-2.6093994E+001	2.790069423190289E+001	5.9458386E-002	1.9252938E-003	5.6386268E-001	1.0908693E-001	1.000000000000000E+000	11	1.3314846E-001	1.0398382E-003	1.733234222830247E-005	0.0000000E+000	-1.0004572E+002	7.0136096E-003	3.4350203E-003	7.8096148E-003	2.6093994E+001	5.092977417839880E-007
4.4664292E+003	1.1586665E+002	6.2566860E+001	1.3168027E+002	-2.8368614E+001	2.866070909466362E+001	5.9437580E-002	1.7175154E-003	5.6952828E-001	1.2857682E-001	1.000000000000000E+000	11	1.3321620E-001	1.0116642E-003	1.836377871248664E-005	0.0000000E+000	-1.0006175E+002	6.6821626E-003	3.6083029E-003	7.5941524E-003	2.8368614E+001	1.031436484184168E-006
3.9812742E+003	1.1686524E+002	6.9505241E+001	1.3597229E+002	-3.0741934E+001	2.942070609076472E+001	5.9443530E-002	1.7933410E-003	5.7514918E-001	1.5028469E-001	1.000000000000000E+000	11	1.3319187E-001	9.7955158E-004	1.804367325365052E-005	0.0000000E+000	-1.0004572E+002	6.3209818E-003	3.7593844E-003	7.3544397E-003	3.0741934E+001	-3.201054588361221E-007
