EC-Lab ASCII FILE
Nb header lines : 75                          

Potentio Electrochemical Impedance Spectroscopy

Run on channel : 3 (SN 20921)
User : 
CE vs. WE compliance from -10 V to 10 V
Electrode connection : standard
Ewe ctrl range : min = -10.00 V, max = 10.00 V
Safety Limits :
	Do not start on E overload
Acquisition started on : 01/22/2020 09:36:27
Technique started on : 01/22/2020 09:36:28
Saved on :
	File : DE_49_7_30.mpr
	Directory : P:\Chemistry\Data\VMP3\Kyler\DOE\DE_49\30C\
	Host : 10.0.4.99
Device : VMP3 (SN 0183)
Address : USB
EC-Lab for windows v11.33 (software)
Internet server v11.32 (firmware)
Command interpretor v11.33 (firmware)
Electrode material : 
Initial state : 
Electrolyte : 
Comments : 
Electrode surface area : 0.001 cm²
Characteristic mass : 0.001 g
Equivalent Weight : 0.000 g/eq.
Density : 0.000 g/cm3
Record Analogic IN 1
Cycle Definition : Charge/Discharge alternance
External device configuration :
   device type : Thermostat
   device name : Other
   Analog OUT : 
      mode : E/V
      unit : T/°C
      max : 400.000 at 5.000 V
      min : -100.000 at 0.000 V
      current : 0.000
   Analog IN 1 : 
      unit : T/°C
      max : 400.000 at 5.000 V
      min : -100.000 at 0.000 V
Mode                Single sine         
E (V)               0.0000              
vs.                 Eoc                 
tE (h:m:s)          0:00:0.0000         
record              0                   
dI                  1.000               
unit dI             mA                  
dt (s)              0.000               
fi                  1.000               
unit fi             MHz                 
ff                  1.000               
unit ff             Hz                  
Nd                  20                  
Points              per decade          
spacing             Logarithmic         
Va (mV)             128.0               
pw                  0.50                
Na                  3                   
corr                0                   
E range min (V)     -10.000             
E range max (V)     10.000              
I Range             Auto                
Bandwidth           5                   
nc cycles           0                   
goto Ns'            0                   
nr cycles           0                   
inc. cycle          1                   

freq/Hz	Re(Z)/Ohm	-Im(Z)/Ohm	|Z|/Ohm	Phase(Z)/deg	time/s	<Ewe>/V	<I>/mA	Cs/µF	Cp/µF	cycle number	I Range	|Ewe|/V	|I|/A	(Q-Qo)/mA.h	Analog OUT/V	Analog IN 1/V	Re(Y)/Ohm-1	Im(Y)/Ohm-1	|Y|/Ohm-1	Phase(Y)/deg	dq/mA.h	
1.0000186E+006	9.1073807E+001	2.9181113E+002	3.0569293E+002	-7.2666939E+001	1.646472184831509E+000	-1.7024018E-002	2.5364901E-003	5.4539379E-004	4.9698481E-004	1.000000000000000E+000	11	4.8718331E-004	1.5937015E-006	4.789099269271194E-007	0.0000000E+000	-1.0008792E+002	9.7459159E-004	3.1227057E-003	3.2712566E-003	7.2666939E+001	4.789099269271194E-007
8.9124669E+005	1.0242654E+002	3.1750134E+002	3.3361398E+002	-7.2120201E+001	2.242493519821437E+000	-1.6592564E-002	2.6015397E-003	5.6244060E-004	5.0942384E-004	1.000000000000000E+000	11	9.2620234E-004	2.7762696E-006	8.617545317834406E-007	0.0000000E+000	-1.0011197E+002	9.2028844E-004	2.8527065E-003	2.9974764E-003	7.2120201E+001	3.828446048563213E-007
7.9433269E+005	1.1640710E+002	3.4601480E+002	3.6507101E+002	-7.1405914E+001	2.838473708106903E+000	-1.6276814E-002	2.5676175E-003	5.7905924E-004	5.2018481E-004	1.000000000000000E+000	11	3.6104601E-003	9.8897472E-006	1.255942605027586E-006	0.0000000E+000	-1.0011197E+002	8.7342318E-004	2.5962109E-003	2.7391932E-003	7.1405914E+001	3.941880732441455E-007
7.0794981E+005	1.3123373E+002	3.7779657E+002	3.9994067E+002	-7.0844505E+001	3.434488509752555E+000	-1.5956257E-002	2.5741416E-003	5.9505843E-004	5.3098775E-004	1.000000000000000E+000	11	7.7920365E-003	1.9482981E-005	1.628381142464390E-006	0.0000000E+000	-1.0009594E+002	8.2045415E-004	2.3619290E-003	2.5003708E-003	7.0844505E+001	3.724385374368038E-007
6.3095681E+005	1.4733212E+002	4.1465451E+002	4.4005127E+002	-7.0439217E+001	4.030493471393129E+000	-1.5693776E-002	2.5681772E-003	6.0832285E-004	5.4013252E-004	1.000000000000000E+000	11	1.3541202E-002	3.0771873E-005	2.065770564243899E-006	0.0000000E+000	-1.0008792E+002	7.6083565E-004	2.1413115E-003	2.2724625E-003	7.0439217E+001	4.373894217795091E-007
5.6234225E+005	1.6593872E+002	4.5384610E+002	4.8323074E+002	-6.9916183E+001	4.626472646399634E+000	-1.5489241E-002	2.5279182E-003	6.2360673E-004	5.5007124E-004	1.000000000000000E+000	11	2.0707734E-002	4.2852684E-005	2.489932814758220E-006	0.0000000E+000	-1.0008792E+002	7.1062206E-004	1.9435670E-003	2.0694048E-003	6.9916183E+001	4.241622505143207E-007
5.0120619E+005	2.3666617E+002	5.0730786E+002	5.5979651E+002	-6.4990295E+001	5.527470075845486E+000	-1.5364981E-002	2.8013179E-004	6.2593917E-004	5.1406136E-004	1.000000000000000E+000	12	1.2297501E-002	2.1967806E-005	2.821761453310601E-006	0.0000000E+000	-1.0011197E+002	7.5522403E-004	1.6188672E-003	1.7863634E-003	6.4990295E+001	3.318286385523814E-007
4.4668572E+005	2.6102625E+002	5.5418298E+002	6.1257935E+002	-6.4779053E+001	6.123484264157014E+000	-1.5258632E-002	3.0114374E-004	6.4293173E-004	5.2619475E-004	1.000000000000000E+000	12	1.6957961E-002	2.7682881E-005	2.911824438902638E-006	0.0000000E+000	-1.0011999E+002	6.9559977E-004	1.4768230E-003	1.6324415E-003	6.4779053E+001	9.006298559203715E-008
3.9810347E+005	2.8705026E+002	6.0506354E+002	6.6970123E+002	-6.4619713E+001	6.719485625770176E+000	-1.5223200E-002	2.8786928E-004	6.6072878E-004	5.3934043E-004	1.000000000000000E+000	12	2.2550533E-002	3.3672528E-005	2.877176260505267E-006	0.0000000E+000	-1.0007188E+002	6.4002321E-004	1.3490835E-003	1.4932032E-003	6.4619713E+001	-3.464817839737081E-008
3.5480997E+005	3.1658612E+002	6.5645850E+002	7.2881036E+002	-6.4253670E+001	7.315485414088471E+000	-1.5206911E-002	2.9480486E-004	6.8330887E-004	5.5437355E-004	1.000000000000000E+000	12	2.9223362E-002	4.0097348E-005	2.878128069454457E-006	0.0000000E+000	-1.0012801E+002	5.9602276E-004	1.2358853E-003	1.3720990E-003	6.4253670E+001	9.518089491899506E-010
3.1622997E+005	3.4644431E+002	7.1238147E+002	7.9215594E+002	-6.4065491E+001	7.910477469005855E+000	-1.5204040E-002	3.1475417E-004	7.0648757E-004	5.7135802E-004	1.000000000000000E+000	12	3.7027061E-002	4.6742138E-005	2.993738148988087E-006	0.0000000E+000	-1.0010395E+002	5.5209268E-004	1.1352494E-003	1.2623777E-003	6.4065491E+001	1.156100795336291E-007
2.8183453E+005	3.8362265E+002	7.7348004E+002	8.6338733E+002	-6.3619980E+001	8.505477630620589E+000	-1.5220422E-002	2.8604214E-004	7.3009066E-004	5.8595423E-004	1.000000000000000E+000	12	4.6322439E-002	5.3651980E-005	2.916113444390652E-006	0.0000000E+000	-1.0012801E+002	5.1462743E-004	1.0376186E-003	1.1582287E-003	6.3619980E+001	-7.762470459743409E-008
2.5118764E+005	4.2228519E+002	8.3733612E+002	9.3779346E+002	-6.3237286E+001	9.101472538925009E+000	-1.5211849E-002	2.9547696E-004	7.5669703E-004	6.0326385E-004	1.000000000000000E+000	12	5.7121728E-002	6.0910777E-005	2.998146854287572E-006	0.0000000E+000	-1.0009594E+002	4.8016608E-004	9.5210632E-004	1.0663329E-003	6.3237286E+001	8.203340989691957E-008
2.2387173E+005	4.6447064E+002	9.0431323E+002	1.0166196E+003	-6.2814198E+001	9.697496113920351E+000	-1.5196882E-002	3.3552444E-004	7.8614376E-004	6.2204647E-004	1.000000000000000E+000	12	6.9716491E-002	6.8576774E-005	3.017331030650186E-006	0.0000000E+000	-1.0008792E+002	4.4940852E-004	8.7498763E-004	9.8365208E-004	6.2814198E+001	1.918417636261433E-008
1.9954350E+005	5.0990948E+002	9.7541333E+002	1.1006538E+003	-6.2401119E+001	1.029449176896014E+001	-1.5181412E-002	3.1656335E-004	8.1769977E-004	6.4219919E-004	1.000000000000000E+000	12	8.4267586E-002	7.6561388E-005	3.174870848672173E-006	0.0000000E+000	-1.0007188E+002	4.2091229E-004	8.0516923E-004	9.0855086E-004	6.2401119E+001	1.575398180219864E-007
1.7783180E+005	5.5779645E+002	1.0502729E+003	1.1892057E+003	-6.2027378E+001	1.089048659722903E+001	-1.5167266E-002	3.0662646E-004	8.5213530E-004	6.6465908E-004	1.000000000000000E+000	12	1.0102340E-001	8.4950319E-005	3.211103693312402E-006	0.0000000E+000	-1.0011999E+002	3.9442262E-004	7.4265694E-004	8.4089744E-004	6.2027378E+001	3.623284464022932E-008
1.5848613E+005	6.0836761E+002	1.1303558E+003	1.2836726E+003	-6.1710464E+001	1.134948069902021E+001	-1.5196303E-002	2.7220999E-004	8.8841055E-004	6.8886724E-004	1.000000000000000E+000	12	1.2027231E-001	9.3693910E-005	3.177763301874216E-006	0.0000000E+000	-1.0011197E+002	3.6919647E-004	6.8597234E-004	7.7901484E-004	6.1710464E+001	-3.334039143818607E-008
1.4125594E+005	6.6163605E+002	1.2149150E+003	1.3833947E+003	-6.1427532E+001	1.194549315402401E+001	-1.5122570E-002	3.0485546E-004	9.2740089E-004	7.1526528E-004	1.000000000000000E+000	12	1.2881023E-001	9.3111703E-005	3.280951653036330E-006	0.0000000E+000	-1.0009594E+002	3.4572196E-004	6.3482457E-004	7.2285952E-004	6.1427532E+001	1.031883511621140E-007
1.2590930E+005	7.1606964E+002	1.3052684E+003	1.4887853E+003	-6.1250847E+001	1.254148216897738E+001	-1.5089283E-002	2.6484518E-004	9.6841721E-004	7.4438570E-004	1.000000000000000E+000	12	1.3037837E-001	8.7573651E-005	3.461348130417719E-006	0.0000000E+000	-1.0007188E+002	3.2306593E-004	5.8889209E-004	6.7168853E-004	6.1250847E+001	1.803964773813887E-007
1.1220494E+005	7.7215161E+002	1.4033086E+003	1.6017157E+003	-6.1178802E+001	1.313749395732884E+001	-1.5123614E-002	2.8997700E-004	1.0107760E-003	7.7587267E-004	1.000000000000000E+000	12	1.3040066E-001	8.1413113E-005	3.458368303821670E-006	0.0000000E+000	-1.0010395E+002	3.0097592E-004	5.4699369E-004	6.2433054E-004	6.1178802E+001	-2.979826596048292E-009
1.0000371E+005	8.3298560E+002	1.5103955E+003	1.7248651E+003	-6.1123192E+001	1.373348275895114E+001	-1.5034189E-002	2.7465186E-004	1.0536911E-003	8.0794987E-004	1.000000000000000E+000	12	1.3029957E-001	7.5541888E-005	3.664327133554757E-006	0.0000000E+000	-1.0013602E+002	2.7998013E-004	5.0766871E-004	5.7975546E-004	6.1123192E+001	2.059588297330870E-007
8.9129305E+004	8.9754095E+002	1.6289349E+003	1.8598411E+003	-6.1145294E+001	1.432948462726199E+001	-1.5021309E-002	2.7953606E-004	1.0962153E-003	8.4091420E-004	1.000000000000000E+000	12	1.3030401E-001	7.0061906E-005	3.596418612184203E-006	0.0000000E+000	-1.0007990E+002	2.5947925E-004	4.7092536E-004	5.3768035E-004	6.1145294E+001	-6.790852137055459E-008
7.9433273E+004	9.6081262E+002	1.7547817E+003	2.0006049E+003	-6.1297546E+001	1.492548889553291E+001	-1.4961015E-002	2.9187844E-004	1.1418120E-003	8.7845221E-004	1.000000000000000E+000	12	1.2993276E-001	6.4946740E-005	3.723148046690868E-006	0.0000000E+000	-1.0007990E+002	2.4005794E-004	4.3843023E-004	4.9984886E-004	6.1297546E+001	1.267294345066653E-007
7.0794977E+004	1.0267687E+003	1.8925681E+003	2.1531531E+003	-6.1518990E+001	1.552047303048312E+001	-1.4987556E-002	2.7136938E-004	1.1878625E-003	9.1773941E-004	1.000000000000000E+000	12	1.2975112E-001	6.0260983E-005	3.786544714054899E-006	0.0000000E+000	-1.0010395E+002	2.2147402E-004	4.0822700E-004	4.6443517E-004	6.1518990E+001	6.339666736403145E-008
6.3093828E+004	1.0950223E+003	2.0424426E+003	2.3174653E+003	-6.1802742E+001	1.611647913881461E+001	-1.4970819E-002	2.8300329E-004	1.2350467E-003	9.5930480E-004	1.000000000000000E+000	12	1.2953311E-001	5.5894303E-005	3.794689716019093E-006	0.0000000E+000	-1.0010395E+002	2.0389025E-004	3.8029740E-004	4.3150590E-004	6.1802742E+001	8.145001964193328E-009
5.6237012E+004	1.1686787E+003	2.2107810E+003	2.5006724E+003	-6.2137859E+001	1.671247324711294E+001	-1.4961071E-002	2.7513548E-004	1.2801244E-003	1.0005299E-003	1.000000000000000E+000	12	1.2943932E-001	5.1761806E-005	3.839017026548896E-006	0.0000000E+000	-1.0007188E+002	1.8688804E-004	3.5353476E-004	3.9989245E-004	6.2137859E+001	4.432731052980292E-008
5.0122477E+004	1.2470995E+003	2.3976396E+003	2.7025789E+003	-6.2519421E+001	1.717149401557981E+001	-1.4951789E-002	2.5429146E-004	1.3243528E-003	1.0423529E-003	1.000000000000000E+000	12	1.3899937E-001	5.1432125E-005	3.845100369060371E-006	0.0000000E+000	-1.0009594E+002	1.7074356E-004	3.2826693E-004	3.7001696E-004	6.2519421E+001	6.083342511475510E-009
4.4666715E+004	1.3318905E+003	2.6015657E+003	2.9226831E+003	-6.2889492E+001	1.776748652386596E+001	-1.4960623E-002	2.7692522E-004	1.3696239E-003	1.0851942E-003	1.000000000000000E+000	12	1.2983358E-001	4.4422737E-005	3.864721012024145E-006	0.0000000E+000	-1.0009594E+002	1.5592117E-004	3.0455893E-004	3.4215135E-004	6.2889492E+001	1.962064296377348E-008
3.9814063E+004	1.4218781E+003	2.8272495E+003	3.1646606E+003	-6.3301300E+001	1.822747715908918E+001	-1.4942619E-002	3.0009972E-004	1.4139026E-003	1.1284790E-003	1.000000000000000E+000	12	1.3570589E-001	4.2881657E-005	3.933204500099540E-006	0.0000000E+000	-1.0011197E+002	1.4197375E-004	2.8229936E-004	3.1598966E-004	6.3301300E+001	6.848348807539492E-008
3.5480996E+004	1.5187538E+003	3.0739597E+003	3.4286792E+003	-6.3707367E+001	1.868648875420331E+001	-1.4928957E-002	2.8568783E-004	1.4592381E-003	1.1729210E-003	1.000000000000000E+000	12	1.4025506E-001	4.0906441E-005	4.000083724306528E-006	0.0000000E+000	-1.0007990E+002	1.2919141E-004	2.6148360E-004	2.9165749E-004	6.3707367E+001	6.687922420698877E-008
3.1621143E+004	1.6221091E+003	3.3487227E+003	3.7209114E+003	-6.4154625E+001	1.928248736917158E+001	-1.4944819E-002	2.7933001E-004	1.5030153E-003	1.2173714E-003	1.000000000000000E+000	12	1.2963441E-001	3.4839424E-005	4.010066711173395E-006	0.0000000E+000	-1.0009594E+002	1.1716053E-004	2.4186917E-004	2.6875135E-004	6.4154625E+001	9.982986866866878E-009
2.8188096E+004	1.7352050E+003	3.6527502E+003	4.0439487E+003	-6.4590378E+001	1.974247699099942E+001	-1.4945303E-002	2.6195362E-004	1.5457327E-003	1.2611394E-003	1.000000000000000E+000	12	1.3183004E-001	3.2599335E-005	4.029118405349537E-006	0.0000000E+000	-1.0008792E+002	1.0610590E-004	2.2336170E-004	2.4728305E-004	6.4590378E+001	1.905169417614204E-008
2.5116910E+004	1.8584034E+003	3.9853479E+003	4.3973472E+003	-6.4999939E+001	2.020247175954864E+001	-1.4939860E-002	2.9323815E-004	1.5899653E-003	1.3059863E-003	1.000000000000000E+000	12	1.3334990E-001	3.0325076E-005	4.064849590465504E-006	0.0000000E+000	-1.0007990E+002	9.6107768E-005	2.0610320E-004	2.2740984E-004	6.4999939E+001	3.573118511596673E-008
2.2389027E+004	1.9929221E+003	4.3648154E+003	4.7982656E+003	-6.5459129E+001	2.082747730924166E+001	-1.4949720E-002	2.1643535E-005	1.6286172E-003	1.3476658E-003	1.000000000000000E+000	13	1.3565724E-001	2.8272139E-005	4.092255375284190E-006	0.0000000E+000	-1.0010395E+002	8.6560904E-005	1.8958209E-004	2.0840863E-004	6.5459129E+001	2.740578481868589E-008
1.9948783E+004	2.1449893E+003	4.7740000E+003	5.2337422E+003	-6.5805305E+001	2.142347824419267E+001	-1.4936991E-002	2.3251627E-005	1.6711727E-003	1.3904696E-003	1.000000000000000E+000	13	1.3015324E-001	2.4868103E-005	4.148861112259333E-006	0.0000000E+000	-1.0011197E+002	7.8306985E-005	1.7428410E-004	1.9106787E-004	6.5805305E+001	5.660573697514336E-008
1.7786895E+004	2.3119128E+003	5.2211592E+003	5.7101177E+003	-6.6116386E+001	2.188249541269033E+001	-1.4941612E-002	2.3186381E-005	1.7137722E-003	1.4328371E-003	1.000000000000000E+000	13	1.3851705E-001	2.4258179E-005	4.166476601738320E-006	0.0000000E+000	-1.0008792E+002	7.0905735E-005	1.6013152E-004	1.7512775E-004	6.6116386E+001	1.761548947898635E-008
1.5847686E+004	2.4985422E+003	5.7164272E+003	6.2386099E+003	-6.6390770E+001	2.247847285433090E+001	-1.4921204E-002	2.4457369E-005	1.7568294E-003	1.4750384E-003	1.000000000000000E+000	13	1.2947628E-001	2.0754027E-005	4.146661855869878E-006	0.0000000E+000	-1.0005585E+002	6.4196458E-005	1.4687539E-004	1.6029213E-004	6.6390770E+001	-1.981474586844152E-008
1.4121879E+004	2.7065422E+003	6.2597520E+003	6.8198140E+003	-6.6617691E+001	2.293749540942372E+001	-1.4920776E-002	2.1810934E-005	1.8004064E-003	1.5168398E-003	1.000000000000000E+000	13	1.2974079E-001	1.9024095E-005	4.161966043550845E-006	0.0000000E+000	-1.0003180E+002	5.8192862E-005	1.3458976E-004	1.4663156E-004	6.6617691E+001	1.530418768096677E-008
1.2590932E+004	2.9386785E+003	6.8581123E+003	7.4612021E+003	-6.6805031E+001	2.339747481796076E+001	-1.4928026E-002	2.4494590E-005	1.8431372E-003	1.5572174E-003	1.000000000000000E+000	13	1.2808719E-001	1.7167098E-005	4.172432511143370E-006	0.0000000E+000	-1.0009594E+002	5.2787902E-005	1.2319327E-004	1.3402666E-004	6.6805031E+001	1.046646759252470E-008
1.1217711E+004	3.2052888E+003	7.5161304E+003	8.1710522E+003	-6.6903954E+001	2.385748273311765E+001	-1.4928194E-002	2.3344635E-005	1.8876505E-003	1.5971814E-003	1.000000000000000E+000	13	1.2552670E-001	1.5362366E-005	4.164631915673377E-006	0.0000000E+000	-1.0009594E+002	4.8007725E-005	1.1257406E-004	1.2238325E-004	6.6903954E+001	-7.800595469992210E-009
1.0002229E+004	3.5040730E+003	8.2356592E+003	8.9501182E+003	-6.6951424E+001	2.431747134166653E+001	-1.4916992E-002	2.0746655E-005	1.9320793E-003	1.6359278E-003	1.000000000000000E+000	13	1.2276737E-001	1.3716844E-005	4.171237337303081E-006	0.0000000E+000	-1.0011197E+002	4.3743716E-005	1.0281130E-004	1.1173037E-004	6.6951424E+001	6.605421629703924E-009
8.9149297E+003	3.8426169E+003	9.0277520E+003	9.8115244E+003	-6.6943214E+001	2.479991992461146E+001	-1.4919713E-002	1.7039696E-005	1.9775277E-003	1.6742058E-003	1.000000000000000E+000	13	1.2011959E-001	1.2242705E-005	4.181716818481643E-006	0.0000000E+000	-1.0010395E+002	3.9916657E-005	9.3779221E-005	1.0192096E-004	6.6943214E+001	1.047948117856190E-008
7.9439976E+003	4.2353301E+003	9.8950000E+003	1.0763319E+004	-6.6827751E+001	2.532600200292654E+001	-1.4919061E-002	2.9054801E-005	2.0247211E-003	1.7112142E-003	1.000000000000000E+000	13	1.1776128E-001	1.0940981E-005	4.176529025858776E-006	0.0000000E+000	-1.0007990E+002	3.6559046E-005	8.5412874E-005	9.2908143E-005	6.6827751E+001	-5.187792622867524E-009
7.0822334E+003	4.6859297E+003	1.0838525E+004	1.1808114E+004	-6.6619232E+001	2.590285603032680E+001	-1.4902846E-002	2.9405152E-005	2.0733839E-003	1.7468636E-003	1.000000000000000E+000	13	1.1572665E-001	9.8006039E-006	4.190021593176298E-006	0.0000000E+000	-1.0010395E+002	3.3607383E-005	7.7733654E-005	8.4687526E-005	6.6619232E+001	1.349256731752279E-008
6.3077344E+003	5.2076333E+003	1.1874386E+004	1.2966128E+004	-6.6319656E+001	2.672254894921207E+001	-1.4899658E-002	2.7288021E-005	2.1248856E-003	1.7821214E-003	1.000000000000000E+000	13	1.2656218E-001	9.7609845E-006	4.184856803775524E-006	0.0000000E+000	-1.0007990E+002	3.0975603E-005	7.0630223E-005	7.7124030E-005	6.6319656E+001	-5.164789400774945E-009
5.6210552E+003	5.8147603E+003	1.2998711E+004	1.4240012E+004	-6.5899429E+001	2.742324588916381E+001	-1.4885810E-002	2.7448274E-005	2.1782212E-003	1.8150219E-003	1.000000000000000E+000	13	1.2497884E-001	8.7765966E-006	4.192671313011917E-006	0.0000000E+000	-1.0007990E+002	2.8675508E-005	6.4103187E-005	7.0224662E-005	6.5899429E+001	7.814509236393515E-009
5.0116035E+003	6.5143711E+003	1.4205923E+004	1.5628349E+004	-6.5365364E+001	2.818371000534535E+001	-1.4875559E-002	2.6110138E-005	2.2354964E-003	1.8470841E-003	1.000000000000000E+000	13	1.2367448E-001	7.9134707E-006	4.197358265540187E-006	0.0000000E+000	-1.0004784E+002	2.6671427E-005	5.8162528E-005	6.3986285E-005	6.5365364E+001	4.686952528270129E-009
4.4664292E+003	7.3321338E+003	1.5505869E+004	1.7152031E+004	-6.4692322E+001	2.894269844139490E+001	-1.4881635E-002	2.9438652E-005	2.2980717E-003	1.8781258E-003	1.000000000000000E+000	13	1.2259802E-001	7.1477261E-006	4.208141981188318E-006	0.0000000E+000	-1.0008792E+002	2.4922938E-005	5.2706600E-005	5.8302132E-005	6.4692322E+001	1.078371564813042E-008
3.9812742E+003	8.2749121E+003	1.6898594E+004	1.8815861E+004	-6.3909908E+001	2.970269005082810E+001	-1.4883388E-002	2.7235752E-005	2.3656334E-003	1.9080967E-003	1.000000000000000E+000	13	1.2172554E-001	6.4693045E-006	4.216338612397117E-006	0.0000000E+000	-1.0005585E+002	2.3373039E-005	4.7731199E-005	5.3146650E-005	6.3909908E+001	8.196631208799910E-009
