EC-Lab ASCII FILE
Nb header lines : 75                          

Potentio Electrochemical Impedance Spectroscopy

Run on channel : 2 (SN 20919)
User : 
CE vs. WE compliance from -10 V to 10 V
Electrode connection : standard
Ewe ctrl range : min = -10.00 V, max = 10.00 V
Safety Limits :
	Do not start on E overload
Acquisition started on : 01/22/2020 09:36:40
Technique started on : 01/22/2020 09:36:41
Saved on :
	File : DE_49_6_30.mpr
	Directory : P:\Chemistry\Data\VMP3\Kyler\DOE\DE_49\30C\
	Host : 10.0.4.99
Device : VMP3 (SN 0183)
Address : USB
EC-Lab for windows v11.33 (software)
Internet server v11.32 (firmware)
Command interpretor v11.33 (firmware)
Electrode material : 
Initial state : 
Electrolyte : 
Comments : 
Electrode surface area : 0.001 cm²
Characteristic mass : 0.001 g
Equivalent Weight : 0.000 g/eq.
Density : 0.000 g/cm3
Record Analogic IN 1
Cycle Definition : Charge/Discharge alternance
External device configuration :
   device type : Thermostat
   device name : Other
   Analog OUT : 
      mode : E/V
      unit : T/°C
      max : 400.000 at 5.000 V
      min : -100.000 at 0.000 V
      current : 0.000
   Analog IN 1 : 
      unit : T/°C
      max : 400.000 at 5.000 V
      min : -100.000 at 0.000 V
Mode                Single sine         
E (V)               0.0000              
vs.                 Eoc                 
tE (h:m:s)          0:00:0.0000         
record              0                   
dI                  1.000               
unit dI             mA                  
dt (s)              0.000               
fi                  1.000               
unit fi             MHz                 
ff                  1.000               
unit ff             Hz                  
Nd                  20                  
Points              per decade          
spacing             Logarithmic         
Va (mV)             128.0               
pw                  0.50                
Na                  3                   
corr                0                   
E range min (V)     -10.000             
E range max (V)     10.000              
I Range             Auto                
Bandwidth           5                   
nc cycles           0                   
goto Ns'            0                   
nr cycles           0                   
inc. cycle          1                   

freq/Hz	Re(Z)/Ohm	-Im(Z)/Ohm	|Z|/Ohm	Phase(Z)/deg	time/s	<Ewe>/V	<I>/mA	Cs/µF	Cp/µF	cycle number	I Range	|Ewe|/V	|I|/A	(Q-Qo)/mA.h	Analog OUT/V	Analog IN 1/V	Re(Y)/Ohm-1	Im(Y)/Ohm-1	|Y|/Ohm-1	Phase(Y)/deg	dq/mA.h	
1.0000186E+006	6.3422607E+001	1.5791074E+002	1.7017117E+002	-6.8117836E+001	1.951493666012539E+000	-3.3644508E-003	2.0165187E-003	1.0078604E-003	8.6786412E-004	1.000000000000000E+000	11	2.6482616E-003	1.5562340E-005	1.572307113946913E-006	0.0000000E+000	-1.0009383E+002	2.1901415E-003	5.4530525E-003	5.8764359E-003	6.8117836E+001	1.572307113946913E-006
8.9124669E+005	7.1594612E+001	1.7084329E+002	1.8523828E+002	-6.7263100E+001	2.548476867697900E+000	-2.9461859E-003	2.0503437E-003	1.0452599E-003	8.8911649E-004	1.000000000000000E+000	11	4.9081417E-003	2.6496367E-005	1.802378822845235E-006	0.0000000E+000	-1.0007779E+002	2.0865023E-003	4.9789352E-003	5.3984523E-003	6.7263100E+001	2.300717088983221E-007
7.9433269E+005	8.1814728E+001	1.8515848E+002	2.0242853E+002	-6.6161125E+001	3.144486789329676E+000	-2.5919206E-003	2.0232105E-003	1.0821167E-003	9.0535282E-004	1.000000000000000E+000	11	8.3325636E-003	4.1162992E-005	2.225992138768763E-006	0.0000000E+000	-1.0008581E+002	1.9965861E-003	4.5185611E-003	4.9400153E-003	6.6161125E+001	4.236133159235274E-007
7.0794981E+005	9.3599533E+001	2.0108102E+002	2.2179822E+002	-6.5038887E+001	3.740478604304371E+000	-2.3130460E-003	2.0995943E-003	1.1180122E-003	9.1890927E-004	1.000000000000000E+000	11	1.3108878E-002	5.9102724E-005	2.469773866102817E-006	0.0000000E+000	-1.0005373E+002	1.9026439E-003	4.0874737E-003	4.5086024E-003	6.5038887E+001	2.437817273340545E-007
6.3095681E+005	1.0705526E+002	2.1885487E+002	2.4363556E+002	-6.3933926E+001	4.335481299232924E+000	-2.0673180E-003	1.9786083E-003	1.1525620E-003	9.3002664E-004	1.000000000000000E+000	11	1.9238170E-002	7.8962898E-005	2.986649065496749E-006	0.0000000E+000	-1.0006977E+002	1.8035437E-003	3.6870150E-003	4.1044913E-003	6.3933926E+001	5.168751993939317E-007
5.6234225E+005	1.2207009E+002	2.3758209E+002	2.6710739E+002	-6.2805824E+001	4.931473594187992E+000	-1.8569547E-003	2.1088871E-003	1.1912577E-003	9.4245648E-004	1.000000000000000E+000	11	2.6584210E-002	9.9526304E-005	3.095111366062257E-006	0.0000000E+000	-1.0010986E+002	1.7109504E-003	3.3299820E-003	3.7438124E-003	6.2805824E+001	1.084623005655079E-007
5.0120619E+005	1.3892126E+002	2.5692542E+002	2.9207840E+002	-6.1599617E+001	5.527472849207697E+000	-1.6823107E-003	2.1352775E-003	1.2359379E-003	9.5633906E-004	1.000000000000000E+000	11	3.4972396E-002	1.1973633E-004	3.125005741706344E-006	0.0000000E+000	-1.0008581E+002	1.6284330E-003	3.0116756E-003	3.4237383E-003	6.1599617E+001	2.989437564408719E-008
4.4668572E+005	1.5792606E+002	2.7693210E+002	3.1879779E+002	-6.0305187E+001	6.123493384133326E+000	-1.5525582E-003	2.0990383E-003	1.2866036E-003	9.7086921E-004	1.000000000000000E+000	11	4.4350564E-002	1.3911817E-004	3.334196316728291E-006	0.0000000E+000	-1.0007779E+002	1.5539004E-003	2.7248506E-003	3.1367845E-003	6.0305187E+001	2.091905750219465E-007
3.9810347E+005	1.7918239E+002	2.9698712E+002	3.4685397E+002	-5.8895996E+001	6.718470532417996E+000	-1.5183861E-003	2.0514620E-003	1.3461286E-003	9.8688935E-004	1.000000000000000E+000	11	5.4682959E-002	1.5765413E-004	3.687243748705239E-006	0.0000000E+000	-1.0007779E+002	1.4893678E-003	2.4685632E-003	2.8830576E-003	5.8895996E+001	3.530474319769484E-007
3.5480997E+005	2.0187857E+002	3.1734244E+002	3.7611325E+002	-5.7537369E+001	7.313485227321507E+000	-1.5094557E-003	1.9817699E-003	1.4135012E-003	1.0062716E-003	1.000000000000000E+000	11	6.5977186E-002	1.7541840E-004	3.691907166855849E-006	0.0000000E+000	-1.0006175E+002	1.4270953E-003	2.2433181E-003	2.6587737E-003	5.7537369E+001	4.663418150610294E-009
3.1622997E+005	2.2706006E+002	3.3735220E+002	4.0664822E+002	-5.6056873E+001	7.908472642273409E+000	-1.5082064E-003	2.0533213E-003	1.4918789E-003	1.0267457E-003	1.000000000000000E+000	11	7.8264773E-002	1.9246309E-004	4.253304001780634E-006	0.0000000E+000	-1.0012590E+002	1.3731025E-003	2.0400735E-003	2.4591279E-003	5.6056873E+001	5.613968349247846E-007
2.8183453E+005	2.5455609E+002	3.5704315E+002	4.3849585E+002	-5.4512798E+001	8.504490643885219E+000	-1.5361140E-003	2.1127926E-003	1.5816311E-003	1.0486140E-003	1.000000000000000E+000	11	9.1683425E-002	2.0908618E-004	4.339405368194599E-006	0.0000000E+000	-1.0012590E+002	1.3238919E-003	1.8569052E-003	2.2805233E-003	5.4512798E+001	8.610136641396447E-008
2.5118764E+005	2.8407388E+002	3.7587534E+002	4.7114780E+002	-5.2919243E+001	9.099493845511461E+000	-1.5544024E-003	2.0481185E-003	1.6856912E-003	1.0728806E-003	1.000000000000000E+000	11	1.0619300E-001	2.2539211E-004	4.786580757934037E-006	0.0000000E+000	-1.0013391E+002	1.2797260E-003	1.6932829E-003	2.1224762E-003	5.2919243E+001	4.471753897394387E-007
2.2387173E+005	3.1534088E+002	3.9375626E+002	5.0446393E+002	-5.1310402E+001	9.559481974021764E+000	-1.5956020E-003	2.0299049E-003	1.8054830E-003	1.0999884E-003	1.000000000000000E+000	11	1.2187675E-001	2.4159656E-004	5.142067532104395E-006	0.0000000E+000	-1.0008581E+002	1.2391391E-003	1.5472741E-003	1.9823024E-003	5.1310402E+001	3.554867741703577E-007
1.9954350E+005	3.4970288E+002	4.1363275E+002	5.4164948E+002	-4.9787388E+001	1.032247417027247E+001	-1.6108348E-003	2.1301817E-004	1.9282692E-003	1.1245036E-003	1.000000000000000E+000	12	5.6660507E-002	1.0460734E-004	5.440577213903048E-006	0.0000000E+000	-1.0006977E+002	1.1919624E-003	1.4098674E-003	1.8462124E-003	4.9787388E+001	2.985096817986534E-007
1.7783180E+005	3.8500302E+002	4.3008435E+002	5.7723468E+002	-4.8165722E+001	1.091849233189714E+001	-1.6194471E-003	2.1005301E-004	2.0809281E-003	1.1552062E-003	1.000000000000000E+000	12	6.7062125E-002	1.1617826E-004	5.638266203061600E-006	0.0000000E+000	-1.0010986E+002	1.1554717E-003	1.2907698E-003	1.7323976E-003	4.8165722E+001	1.976889891585514E-007
1.5848613E+005	4.2164487E+002	4.4523877E+002	6.1320630E+002	-4.6559029E+001	1.151449249355937E+001	-1.5896931E-003	2.3823266E-004	2.2554640E-003	1.1890733E-003	1.000000000000000E+000	12	7.8972876E-002	1.2878679E-004	5.735229635666959E-006	0.0000000E+000	-1.0006977E+002	1.1213305E-003	1.1840765E-003	1.6307726E-003	4.6559029E+001	9.696343260535878E-008
1.4125594E+005	4.5962601E+002	4.5914813E+002	6.4967151E+002	-4.4970200E+001	1.211048812183435E+001	-1.5971126E-003	2.1883802E-004	2.4539211E-003	1.2256842E-003	1.000000000000000E+000	12	9.2536896E-002	1.4243645E-004	5.808206576380245E-006	0.0000000E+000	-1.0009383E+002	1.0889726E-003	1.0878404E-003	1.5392394E-003	4.4970200E+001	7.297694071328621E-008
1.2590930E+005	4.9850189E+002	4.7161737E+002	6.8624127E+002	-4.3412590E+001	1.270747887020116E+001	-1.6011579E-003	2.1259091E-004	2.6802330E-003	1.2658973E-003	1.000000000000000E+000	12	1.0792622E-001	1.5727154E-004	5.841894910184945E-006	0.0000000E+000	-1.0007779E+002	1.0585543E-003	1.0014657E-003	1.4572134E-003	4.3412590E+001	3.368833380470006E-008
1.1220494E+005	5.3806659E+002	4.8289700E+002	7.2298352E+002	-4.1906929E+001	1.316649110536673E+001	-1.6121567E-003	2.2406068E-004	2.9373362E-003	1.3104060E-003	1.000000000000000E+000	12	1.2532632E-001	1.7334602E-004	5.761430457959553E-006	0.0000000E+000	-1.0007779E+002	1.0293884E-003	9.2384208E-004	1.3831574E-003	4.1906929E+001	-8.046445222539178E-008
1.0000371E+005	5.7837689E+002	4.9298721E+002	7.5997119E+002	-4.0443058E+001	1.376248382698395E+001	-1.5424889E-003	2.3741342E-004	3.2282590E-003	1.3584554E-003	1.000000000000000E+000	12	1.2936899E-001	1.7022881E-004	5.558562016778322E-006	0.0000000E+000	-1.0008581E+002	1.0014209E-003	8.5357449E-004	1.3158394E-003	4.0443058E+001	-2.028684411812316E-007
8.9129305E+004	6.1931122E+002	5.0201080E+002	7.9722095E+002	-3.9028065E+001	1.435847297529108E+001	-1.5053342E-003	2.1591061E-004	3.5570217E-003	1.4104422E-003	1.000000000000000E+000	12	1.3019641E-001	1.6331283E-004	5.528603603071436E-006	0.0000000E+000	-1.0008581E+002	9.7443198E-004	7.8987010E-004	1.2543574E-003	3.9028065E+001	-2.995841370688579E-008
7.9433273E+004	6.6046161E+002	5.0988287E+002	8.3438007E+002	-3.7668495E+001	1.495447649693233E+001	-1.4769230E-003	2.1563051E-004	3.9295903E-003	1.4674397E-003	1.000000000000000E+000	12	1.3012958E-001	1.5595960E-004	5.357622763945579E-006	0.0000000E+000	-1.0010184E+002	9.4867998E-004	7.3239033E-004	1.1984946E-003	3.7668495E+001	-1.709808391258566E-007
7.0794977E+004	7.0200665E+002	5.1712097E+002	8.7191022E+002	-3.6376572E+001	1.555049241860979E+001	-1.4456407E-003	2.2461955E-004	4.3473593E-003	1.5292071E-003	1.000000000000000E+000	12	1.3005325E-001	1.4915899E-004	5.422612443335108E-006	0.0000000E+000	-1.0005373E+002	9.2341664E-004	6.8021880E-004	1.1469071E-003	3.6376572E+001	6.498967938952901E-008
6.3093828E+004	7.4398218E+002	5.2336646E+002	9.0962738E+002	-3.5125099E+001	1.614647260689526E+001	-1.4207902E-003	2.3178066E-004	4.8197820E-003	1.5955562E-003	1.000000000000000E+000	12	1.2994969E-001	1.4286036E-004	5.527727683293860E-006	0.0000000E+000	-1.0005373E+002	8.9915690E-004	6.3252664E-004	1.0993512E-003	3.5125099E+001	1.051152399587515E-007
5.6237012E+004	7.8626862E+002	5.2873138E+002	9.4751001E+002	-3.3919113E+001	1.674147794183227E+001	-1.4073489E-003	2.2713673E-004	5.3525758E-003	1.6667305E-003	1.000000000000000E+000	12	1.2984461E-001	1.3703771E-004	5.610042296806771E-006	0.0000000E+000	-1.0004572E+002	8.7579672E-004	5.8893516E-004	1.0553978E-003	3.3919113E+001	8.231461351291107E-008
5.0122477E+004	8.2835492E+002	5.3351196E+002	9.8529535E+002	-3.2784046E+001	1.733647525004926E+001	-1.3769055E-003	2.3136963E-004	5.9517329E-003	1.7450140E-003	1.000000000000000E+000	12	1.2962836E-001	1.3156295E-004	5.592227035372667E-006	0.0000000E+000	-1.0008581E+002	8.5326441E-004	5.4955517E-004	1.0149241E-003	3.2784046E+001	-1.781526143410380E-008
4.4666715E+004	8.7088336E+002	5.3747113E+002	1.0233832E+003	-3.1681070E+001	1.793348978509312E+001	-1.3638557E-003	2.5557578E-004	6.6295033E-003	1.8285831E-003	1.000000000000000E+000	12	1.2952134E-001	1.2656192E-004	5.570910568060046E-006	0.0000000E+000	-1.0009383E+002	8.3154062E-004	5.1319052E-004	9.7715110E-004	3.1681070E+001	-2.131646731262104E-008
3.9814063E+004	9.1356116E+002	5.4082629E+002	1.0616436E+003	-3.0625444E+001	1.852947074672556E+001	-1.3808018E-003	2.2030996E-004	7.3913853E-003	1.9181563E-003	1.000000000000000E+000	12	1.2929401E-001	1.2178664E-004	5.588313234440445E-006	0.0000000E+000	-1.0009383E+002	8.1055070E-004	4.7984431E-004	9.4193575E-004	3.0625444E+001	1.740266638039929E-008
3.5480996E+004	9.5633594E+002	5.4348572E+002	1.0999796E+003	-2.9609570E+001	1.898849247521139E+001	-1.3355931E-003	2.5904478E-004	8.2534626E-003	2.0148521E-003	1.000000000000000E+000	12	1.3932757E-001	1.2666377E-004	5.709039237532933E-006	0.0000000E+000	-1.0007779E+002	7.9038955E-004	4.4917839E-004	9.0910774E-004	2.9609570E+001	1.207260030924875E-007
3.1621143E+004	9.9972101E+002	5.4584729E+002	1.1390309E+003	-2.8634525E+001	1.958348050349741E+001	-1.3366562E-003	2.3983573E-004	9.2208590E-003	2.1175942E-003	1.000000000000000E+000	12	1.3010335E-001	1.1422285E-004	5.596536757856989E-006	0.0000000E+000	-1.0010986E+002	7.7056239E-004	4.2072681E-004	8.7793934E-004	2.8634525E+001	-1.125024796759437E-007
2.8188096E+004	1.0427112E+003	5.4715179E+002	1.1775491E+003	-2.7687771E+001	2.004347889867495E+001	-1.3423790E-003	2.2141034E-004	1.0319212E-002	2.2279436E-003	1.000000000000000E+000	12	1.3712904E-001	1.1645292E-004	5.528351911374355E-006	0.0000000E+000	-1.0008581E+002	7.5197953E-004	3.9459337E-004	8.4922148E-004	2.7687771E+001	-6.818484648263421E-008
2.5116910E+004	1.0863568E+003	5.4793066E+002	1.2167166E+003	-2.6765213E+001	2.063947820695466E+001	-1.3325362E-003	2.3935077E-004	1.1564538E-002	2.3453124E-003	1.000000000000000E+000	12	1.2953509E-001	1.0646284E-004	5.683199165955658E-006	0.0000000E+000	-1.0010184E+002	7.3382695E-004	3.7012360E-004	8.2188408E-004	2.6765213E+001	1.548472545813029E-007
2.2389027E+004	1.1298273E+003	5.4819073E+002	1.2557957E+003	-2.5882603E+001	2.109948974879808E+001	-1.3230841E-003	2.4985027E-004	1.2967409E-002	2.4710335E-003	1.000000000000000E+000	12	1.3397942E-001	1.0668887E-004	5.708689983052156E-006	0.0000000E+000	-1.0005373E+002	7.1643054E-004	3.4761120E-004	7.9630793E-004	2.5882603E+001	2.549081709649828E-008
1.9948783E+004	1.1731951E+003	5.4739349E+002	1.2946144E+003	-2.5012981E+001	2.155948227734189E+001	-1.3324798E-003	2.3517337E-004	1.4574849E-002	2.6056885E-003	1.000000000000000E+000	12	1.3751620E-001	1.0622174E-004	5.691590343893242E-006	0.0000000E+000	-1.0010184E+002	6.9998606E-004	3.2660196E-004	7.7243079E-004	2.5012981E+001	-1.709963915891384E-008
1.7786895E+004	1.2164169E+003	5.4573883E+002	1.3332295E+003	-2.4163130E+001	2.201947264585760E+001	-1.3185909E-003	2.3321512E-004	1.6395897E-002	2.7472302E-003	1.000000000000000E+000	12	1.4025743E-001	1.0520127E-004	5.745225650653361E-006	0.0000000E+000	-1.0008581E+002	6.8434107E-004	3.0702588E-004	7.5005839E-004	2.4163130E+001	5.363530676011865E-008
1.5847686E+004	1.2601420E+003	5.4392114E+002	1.3725188E+003	-2.3346710E+001	2.261549331413698E+001	-1.3168950E-003	2.4475888E-004	1.8463684E-002	2.8997038E-003	1.000000000000000E+000	12	1.2940031E-001	9.4279443E-005	5.666561576490090E-006	0.0000000E+000	-1.0008581E+002	6.6893332E-004	2.8873494E-004	7.2858745E-004	2.3346710E+001	-7.866407416327036E-008
1.4121879E+004	1.3035712E+003	5.4087201E+002	1.4113257E+003	-2.2534325E+001	2.307547682934091E+001	-1.3222455E-003	2.2101843E-004	2.0836903E-002	3.0603257E-003	1.000000000000000E+000	12	1.3078013E-001	9.2664741E-005	5.744299506507458E-006	0.0000000E+000	-1.0003770E+002	6.5445568E-004	2.7154386E-004	7.0855365E-004	2.2534325E+001	7.773793001736784E-008
1.2590932E+004	1.3461445E+003	5.3686066E+002	1.4492496E+003	-2.1742783E+001	2.353547293119482E+001	-1.3261416E-003	2.3690755E-004	2.3545107E-002	3.2310036E-003	1.000000000000000E+000	12	1.3177174E-001	9.0924113E-005	5.697976576457020E-006	0.0000000E+000	-1.0007779E+002	6.4092217E-004	2.5560844E-004	6.9001224E-004	2.1742783E+001	-4.632293005043811E-008
1.1217711E+004	1.3883513E+003	5.3197253E+002	1.4867798E+003	-2.0965261E+001	2.399449060633197E+001	-1.3130545E-003	2.3300970E-004	2.6670227E-002	3.4143797E-003	1.000000000000000E+000	12	1.3245864E-001	8.9090965E-005	5.689816629968037E-006	0.0000000E+000	-1.0004572E+002	6.2806718E-004	2.4065559E-004	6.7259459E-004	2.0965261E+001	-8.159946488983178E-009
1.0002229E+004	1.4299531E+003	5.2623895E+002	1.5237104E+003	-2.0204185E+001	2.445448625480640E+001	-1.3224130E-003	2.2769475E-004	3.0237112E-002	3.6066284E-003	1.000000000000000E+000	12	1.3293281E-001	8.7242828E-005	5.666989313548482E-006	0.0000000E+000	-1.0010184E+002	6.1590952E-004	2.2666166E-004	6.5629266E-004	2.0204185E+001	-2.282731641955448E-008
8.9149297E+003	1.4713749E+003	5.1988696E+002	1.5605212E+003	-1.9460052E+001	2.493692587778787E+001	-1.2886513E-003	2.4212926E-004	3.4339447E-002	3.8112879E-003	1.000000000000000E+000	12	1.3322020E-001	8.5369036E-005	5.665955939336628E-006	0.0000000E+000	-1.0011788E+002	6.0420454E-004	2.1348607E-004	6.4081152E-004	1.9460052E+001	-1.033374211854600E-009
7.9439976E+003	1.5115540E+003	5.1252972E+002	1.5960834E+003	-1.8730497E+001	2.546297294276883E+001	-1.2714069E-003	2.3187207E-004	3.9089665E-002	4.0307785E-003	1.000000000000000E+000	12	1.3340428E-001	8.3582279E-005	5.771334866652776E-006	0.0000000E+000	-1.0006175E+002	5.9335213E-004	2.0119071E-004	6.2653370E-004	1.8730497E+001	1.053789273161485E-007
7.0822334E+003	1.5505414E+003	5.0503766E+002	1.6307181E+003	-1.8041309E+001	2.603988089016639E+001	-1.2500238E-003	2.4811557E-004	4.4496529E-002	4.2679161E-003	1.000000000000000E+000	12	1.3350274E-001	8.1867453E-005	5.748102792152673E-006	0.0000000E+000	-1.0010184E+002	5.8307656E-004	1.8991793E-004	6.1322679E-004	1.8041309E+001	-2.323207450010364E-008
6.3077344E+003	1.5893818E+003	4.9625119E+002	1.6650525E+003	-1.7339882E+001	2.667453380025108E+001	-1.2498747E-003	2.0020557E-004	5.0844640E-002	4.5164004E-003	1.000000000000000E+000	12	1.3354281E-001	8.0203361E-005	5.822455682426026E-006	0.0000000E+000	-1.0013391E+002	5.7328737E-004	1.7899698E-004	6.0058164E-004	1.7339882E+001	7.435289027335328E-008
5.6210552E+003	1.6266984E+003	4.8733374E+002	1.6981289E+003	-1.6677404E+001	2.737528647357249E+001	-1.2459784E-003	2.1762396E-004	5.8099955E-002	4.7850604E-003	1.000000000000000E+000	12	1.3354027E-001	7.8639656E-005	5.892083639617340E-006	0.0000000E+000	-1.0005373E+002	5.6411250E-004	1.6899941E-004	5.8888347E-004	1.6677404E+001	6.962795719131406E-008
5.0116035E+003	1.6622346E+003	4.7787827E+002	1.7295640E+003	-1.6039492E+001	2.813569674972678E+001	-1.2329472E-003	2.1512494E-004	6.6454768E-002	5.0732638E-003	1.000000000000000E+000	12	1.3351700E-001	7.7196913E-005	6.004798535912287E-006	0.0000000E+000	-1.0010986E+002	5.5567274E-004	1.5975116E-004	5.7818042E-004	1.6039492E+001	1.127148962949475E-007
4.4664292E+003	1.6966222E+003	4.6808151E+002	1.7600077E+003	-1.5423661E+001	2.889568318583042E+001	-1.2376265E-003	2.2844045E-004	7.6126911E-002	5.3845826E-003	1.000000000000000E+000	12	1.3347340E-001	7.5836826E-005	6.122594364027463E-006	0.0000000E+000	-1.0010184E+002	5.4771674E-004	1.5110971E-004	5.6817936E-004	1.5423661E+001	1.177958281151758E-007
3.9812742E+003	1.7296387E+003	4.5812402E+002	1.7892813E+003	-1.4835101E+001	2.965570471526007E+001	-1.2392111E-003	2.1464001E-004	8.7259956E-002	5.7203667E-003	1.000000000000000E+000	12	1.3342644E-001	7.4569856E-005	6.190700714477215E-006	0.0000000E+000	-1.0006977E+002	5.4025423E-004	1.4309546E-004	5.5888365E-004	1.4835101E+001	6.810635044975140E-008
