EC-Lab ASCII FILE
Nb header lines : 75                          

Potentio Electrochemical Impedance Spectroscopy

Run on channel : 4 (SN 4192)
User : 
CE vs. WE compliance from -10 V to 10 V
Electrode connection : standard
Ewe ctrl range : min = -10.00 V, max = 10.00 V
Safety Limits :
	Do not start on E overload
Acquisition started on : 01/24/2020 09:51:56
Technique started on : 01/24/2020 09:51:57
Saved on :
	File : DE_40_8_60.mpr
	Directory : P:\Chemistry\Data\VMP3\Kyler\DOE\DE_40\2ND 60C\
	Host : 10.0.4.99
Device : VMP3 (SN 0183)
Address : USB
EC-Lab for windows v11.33 (software)
Internet server v11.32 (firmware)
Command interpretor v11.33 (firmware)
Electrode material : 
Initial state : 
Electrolyte : 
Comments : 
Electrode surface area : 0.001 cm²
Characteristic mass : 0.001 g
Equivalent Weight : 0.000 g/eq.
Density : 0.000 g/cm3
Record Analogic IN 1
Cycle Definition : Charge/Discharge alternance
External device configuration :
   device type : Thermostat
   device name : Other
   Analog OUT : 
      mode : E/V
      unit : T/°C
      max : 400.000 at 5.000 V
      min : -100.000 at 0.000 V
      current : 0.000
   Analog IN 1 : 
      unit : T/°C
      max : 400.000 at 5.000 V
      min : -100.000 at 0.000 V
Mode                Single sine         
E (V)               0.0000              
vs.                 Eoc                 
tE (h:m:s)          0:00:0.0000         
record              0                   
dI                  1.000               
unit dI             mA                  
dt (s)              0.000               
fi                  1.000               
unit fi             MHz                 
ff                  1.000               
unit ff             Hz                  
Nd                  20                  
Points              per decade          
spacing             Logarithmic         
Va (mV)             128.0               
pw                  0.50                
Na                  3                   
corr                0                   
E range min (V)     -10.000             
E range max (V)     10.000              
I Range             Auto                
Bandwidth           5                   
nc cycles           0                   
goto Ns'            0                   
nr cycles           0                   
inc. cycle          1                   

freq/Hz	Re(Z)/Ohm	-Im(Z)/Ohm	|Z|/Ohm	Phase(Z)/deg	time/s	<Ewe>/V	<I>/mA	Cs/µF	Cp/µF	cycle number	I Range	|Ewe|/V	|I|/A	(Q-Qo)/mA.h	Analog OUT/V	Analog IN 1/V	Re(Y)/Ohm-1	Im(Y)/Ohm-1	|Y|/Ohm-1	Phase(Y)/deg	dq/mA.h	
1.0000186E+006	6.9284988E+001	2.8320457E+001	7.4849571E+001	-2.2232443E+001	1.646470024861628E+000	1.1740669E-003	1.9375342E-003	5.6196828E-003	8.0451416E-004	1.000000000000000E+000	11	5.7849946E-004	7.7288278E-006	4.195895145743028E-007	0.0000000E+000	-1.0009658E+002	1.2366891E-002	5.0550052E-003	1.3360130E-002	2.2232443E+001	4.195895145743028E-007
8.9124669E+005	7.1847214E+001	2.6239342E+001	7.6488724E+001	-2.0062714E+001	2.242487839801470E+000	1.4156397E-003	2.1807882E-003	6.8056448E-003	8.0090371E-004	1.000000000000000E+000	11	6.8860967E-004	9.0027606E-006	7.530941237582737E-007	0.0000000E+000	-1.0005648E+002	1.2280473E-002	4.4849552E-003	1.3073822E-002	2.0062714E+001	3.335046091839710E-007
7.9433269E+005	7.5400620E+001	2.4872469E+001	7.9397057E+001	-1.8256220E+001	2.838490854803240E+000	1.6129545E-003	2.6650627E-003	8.0556171E-003	7.9054717E-004	1.000000000000000E+000	11	5.5712357E-004	7.0169294E-006	1.310872721737218E-006	0.0000000E+000	-1.0013667E+002	1.1960961E-002	3.9455732E-003	1.2594925E-002	1.8256220E+001	5.577785979789446E-007
7.0794981E+005	-1.6841425E+000	-2.9163487E+000	3.3677032E+000	1.2000571E+002	3.633600172615843E+000	1.8572867E-003	2.8832752E-001	-7.7086478E-002	-5.7808205E-002	1.000000000000000E+000	9	1.3917977E-005	4.1327803E-006	2.874215932358574E-005	0.0000000E+000	-1.0007252E+002	-1.4849478E-001	-2.5714126E-001	2.9693827E-001	-1.2000571E+002	2.743128660184852E-005
6.3095681E+005	8.0120186E+001	2.1121939E+001	8.2857590E+001	-1.4768761E+001	4.809492068394320E+000	1.9336659E-003	3.0097512E-003	1.1942266E-002	7.7604997E-004	1.000000000000000E+000	11	1.1907370E-003	1.4370886E-005	5.762656484933784E-005	0.0000000E+000	-1.0007252E+002	1.1670174E-002	3.0765869E-003	1.2068900E-002	1.4768761E+001	2.888440552575210E-005
5.6234225E+005	8.2369705E+001	1.9769278E+001	8.4708870E+001	-1.3496094E+001	5.405486150033539E+000	2.0079759E-003	3.3791913E-003	1.4316228E-002	7.7974470E-004	1.000000000000000E+000	11	3.1168626E-003	3.6794998E-005	5.802102194812809E-005	0.0000000E+000	-1.0012064E+002	1.1479151E-002	2.7550724E-003	1.1805139E-002	1.3496094E+001	3.944570987902523E-007
5.0120619E+005	8.4449287E+001	1.8555687E+001	8.6463837E+001	-1.2392433E+001	6.002493485080777E+000	2.0654891E-003	3.5491178E-003	1.7113021E-002	7.8815524E-004	1.000000000000000E+000	11	5.8547221E-003	6.7712957E-005	5.851370552277109E-005	0.0000000E+000	-1.0014469E+002	1.1296059E-002	2.4820359E-003	1.1565529E-002	1.2392433E+001	4.926835746429974E-007
4.4668572E+005	8.5640007E+001	1.7176691E+001	8.7345573E+001	-1.1341250E+001	6.597483220015420E+000	2.1921666E-003	3.6127707E-003	2.0743333E-002	8.0218725E-004	1.000000000000000E+000	11	9.4599659E-003	1.0830504E-004	5.915902355635585E-005	0.0000000E+000	-1.0010460E+002	1.1225221E-002	2.2514260E-003	1.1448777E-002	1.1341250E+001	6.453180335847696E-007
3.9810347E+005	8.7004089E+001	1.5993357E+001	8.8461853E+001	-1.0416001E+001	7.193477914988762E+000	2.1954665E-003	3.5411164E-003	2.4996808E-002	8.1705587E-004	1.000000000000000E+000	11	1.3953313E-002	1.5773255E-004	5.985985290762538E-005	0.0000000E+000	-1.0009658E+002	1.1118025E-002	2.0437490E-003	1.1304308E-002	1.0416001E+001	7.008293512695280E-007
3.5480997E+005	8.7974693E+001	1.4790410E+001	8.9209320E+001	-9.5433884E+000	7.788485596567625E+000	2.2450376E-003	3.5083620E-003	3.0328024E-002	8.3365064E-004	1.000000000000000E+000	11	1.9365538E-002	2.1707975E-004	6.001499916848317E-005	0.0000000E+000	-1.0012064E+002	1.1054454E-002	1.8584880E-003	1.1209591E-002	9.5433884E+000	1.551462608577895E-007
3.1622997E+005	8.8990700E+001	1.3667256E+001	9.0034096E+001	-8.7313061E+000	8.383492958178977E+000	2.2449819E-003	3.5772279E-003	3.6824405E-002	8.4856368E-004	1.000000000000000E+000	11	2.5719510E-002	2.8566411E-004	6.033677864489922E-005	0.0000000E+000	-1.0008855E+002	1.0978187E-002	1.6860380E-003	1.1106904E-002	8.7313061E+000	3.217794764160428E-007
2.8183453E+005	8.9655548E+001	1.2571894E+001	9.0532700E+001	-7.9822192E+000	8.978479013108881E+000	2.2349337E-003	3.4523450E-003	4.4918500E-002	8.6619501E-004	1.000000000000000E+000	11	3.3023316E-002	3.6476672E-004	6.134300552261347E-005	0.0000000E+000	-1.0010460E+002	1.0938712E-002	1.5338743E-003	1.1045733E-002	7.9822192E+000	1.006226877714251E-006
2.5118764E+005	9.0282539E+001	1.1591759E+001	9.1023659E+001	-7.3164191E+000	9.575485521432711E+000	2.2550868E-003	3.5712738E-003	5.4660365E-002	8.8646711E-004	1.000000000000000E+000	11	4.1337039E-002	4.5413512E-004	6.106500245162170E-005	0.0000000E+000	-1.0015271E+002	1.0896705E-002	1.3990742E-003	1.0986155E-002	7.3164191E+000	-2.780030709917706E-007
2.2387173E+005	9.0726822E+001	1.0704036E+001	9.1356079E+001	-6.7287049E+000	1.017147152309190E+001	2.3035021E-003	4.0676501E-003	6.6416092E-002	9.1178721E-004	1.000000000000000E+000	11	5.0648000E-002	5.5440207E-004	6.205026543443737E-005	0.0000000E+000	-1.0011262E+002	1.0870783E-002	1.2825452E-003	1.0946179E-002	6.7287049E+000	9.852629828156778E-007
1.9954350E+005	9.0971649E+001	9.8974094E+000	9.1508469E+001	-6.2091660E+000	1.076848491144483E+001	2.2458220E-003	3.4558910E-003	8.0586269E-002	9.4271742E-004	1.000000000000000E+000	11	6.0815442E-002	6.6458812E-004	6.322581159924287E-005	0.0000000E+000	-1.0010460E+002	1.0863843E-002	1.1819495E-003	1.0927950E-002	6.2091660E+000	1.175546164805495E-006
1.7783180E+005	9.1239235E+001	9.2137756E+000	9.1703278E+001	-5.7664537E+000	1.136348240639200E+001	2.2184174E-003	3.3440366E-003	9.7134404E-002	9.8057010E-004	1.000000000000000E+000	11	7.1915418E-002	7.8421860E-004	6.539458200677634E-005	0.0000000E+000	-1.0012865E+002	1.0849555E-002	1.0956401E-003	1.0904736E-002	5.7664537E+000	2.168770407533473E-006
1.5848613E+005	9.1524399E+001	8.6305618E+000	9.1930420E+001	-5.3869448E+000	1.195949491465581E+001	2.2090776E-003	3.1999832E-003	1.1635628E-001	1.0255326E-003	1.000000000000000E+000	11	8.3876640E-002	9.1239269E-004	6.650113821805765E-005	0.0000000E+000	-1.0005648E+002	1.0829749E-002	1.0212230E-003	1.0877792E-002	5.3869448E+000	1.106556211281310E-006
1.4125594E+005	9.1685509E+001	8.1504965E+000	9.2047073E+001	-5.0800252E+000	1.255548720966908E+001	2.2326049E-003	3.5346223E-003	1.3823861E-001	1.0838708E-003	1.000000000000000E+000	11	9.6523501E-002	1.0486320E-003	6.897351224513518E-005	0.0000000E+000	-1.0012064E+002	1.0821332E-002	9.6197566E-004	1.0864006E-002	5.0800252E+000	2.472374027077525E-006
1.2590930E+005	9.1842331E+001	7.7583733E+000	9.2169441E+001	-4.8285923E+000	1.315249307799968E+001	2.2232090E-003	3.3717745E-003	1.6292648E-001	1.1544074E-003	1.000000000000000E+000	11	1.1010025E-001	1.1945418E-003	7.043481106152629E-005	0.0000000E+000	-1.0008855E+002	1.0811077E-002	9.1326487E-004	1.0849583E-002	4.8285923E+000	1.461298816391111E-006
1.1220494E+005	9.1957947E+001	7.4582057E+000	9.2259895E+001	-4.6367979E+000	1.361147048647399E+001	2.2740299E-003	3.9898786E-003	1.9018392E-001	1.2428439E-003	1.000000000000000E+000	11	1.2462122E-001	1.3507627E-003	7.196852893043413E-005	0.0000000E+000	-1.0016875E+002	1.0803471E-002	8.7621040E-004	1.0838945E-002	4.6367979E+000	1.533717868907846E-006
1.0000371E+005	9.2049767E+001	7.2476754E+000	9.2334656E+001	-4.5019803E+000	1.407148570832214E+001	2.2487324E-003	3.4507038E-003	2.1958631E-001	1.3529236E-003	1.000000000000000E+000	11	1.4029661E-001	1.5194361E-003	7.244100007327425E-005	0.0000000E+000	-1.0014469E+002	1.0796755E-002	8.5009850E-004	1.0830170E-002	4.5019803E+000	4.724711428401193E-007
8.9129305E+004	9.2178391E+001	7.1119061E+000	9.2452339E+001	-4.4118423E+000	1.466748064328567E+001	2.2582398E-003	3.7149861E-003	2.5108087E-001	1.4857639E-003	1.000000000000000E+000	11	1.3066587E-001	1.4133322E-003	7.554837479979161E-005	0.0000000E+000	-1.0009658E+002	1.0784334E-002	8.3205150E-004	1.0816384E-002	4.4118423E+000	3.107374726517363E-006
7.9433273E+004	9.2226357E+001	7.0671358E+000	9.2496735E+001	-4.3819065E+000	1.526348920495366E+001	2.2736012E-003	3.6623140E-003	2.8351381E-001	1.6550393E-003	1.000000000000000E+000	11	1.2993148E-001	1.4047142E-003	7.921218216621492E-005	0.0000000E+000	-1.0012865E+002	1.0779591E-002	8.2602014E-004	1.0811193E-002	4.3819065E+000	3.663807366423305E-006
7.0794977E+004	9.2272667E+001	7.1041436E+000	9.2545738E+001	-4.4025612E+000	1.585847920653760E+001	2.2999807E-003	4.0272865E-003	3.1645063E-001	1.8647326E-003	1.000000000000000E+000	11	1.2964310E-001	1.4008543E-003	8.014142367261067E-005	0.0000000E+000	-1.0011262E+002	1.0773584E-002	8.2946662E-004	1.0805468E-002	4.4025612E+000	9.292415063957507E-007
6.3093828E+004	9.2306709E+001	7.2276149E+000	9.2589241E+001	-4.4771247E+000	1.645447086149943E+001	2.2832581E-003	3.8623884E-003	3.4901032E-001	2.1267047E-003	1.000000000000000E+000	11	1.2961014E-001	1.3998401E-003	7.936076439314962E-005	0.0000000E+000	-1.0013667E+002	1.0767434E-002	8.4309006E-004	1.0800391E-002	4.4771247E+000	-7.806592794610504E-007
5.6237012E+004	9.2338310E+001	7.4311204E+000	9.2636848E+001	-4.6010828E+000	1.705049011649680E+001	2.2793617E-003	3.6338374E-003	3.8084093E-001	2.4506690E-003	1.000000000000000E+000	11	1.2948015E-001	1.3977176E-003	8.037958536366932E-005	0.0000000E+000	-1.0004044E+002	1.0760053E-002	8.6593797E-004	1.0794841E-002	4.6010828E+000	1.018820970519698E-006
5.0122477E+004	9.2374817E+001	7.7221870E+000	9.2697029E+001	-4.7786007E+000	1.764649075813941E+001	2.2819159E-003	3.6338370E-003	4.1119450E-001	2.8536210E-003	1.000000000000000E+000	11	1.2949640E-001	1.3969854E-003	8.255594815115911E-005	0.0000000E+000	-1.0009658E+002	1.0750335E-002	8.9868752E-004	1.0787833E-002	4.7786007E+000	2.176362787489788E-006
4.4666715E+004	9.2416222E+001	8.1082478E+000	9.2771233E+001	-5.0140743E+000	1.824147323970101E+001	2.2955809E-003	3.7036310E-003	4.3944961E-001	3.3568852E-003	1.000000000000000E+000	11	1.2925062E-001	1.3932186E-003	8.284571619280097E-005	0.0000000E+000	-1.0004846E+002	1.0737955E-002	9.4210723E-004	1.0779204E-002	5.0140743E+000	2.897680416418652E-007
3.9814063E+004	9.2456856E+001	8.5889883E+000	9.2854942E+001	-5.3073888E+000	1.870147430160432E+001	2.2795300E-003	3.5277558E-003	4.6541637E-001	3.9821318E-003	1.000000000000000E+000	11	1.4004561E-001	1.5082193E-003	8.280820101282249E-005	0.0000000E+000	-1.0004846E+002	1.0723315E-002	9.9616661E-004	1.0769486E-002	5.3073888E+000	-3.751517997848417E-008
3.5480996E+004	9.2506180E+001	9.1930304E+000	9.2961845E+001	-5.6752758E+000	1.929649024983519E+001	2.3344883E-003	4.0825633E-003	4.8793909E-001	4.7717048E-003	1.000000000000000E+000	11	1.3038605E-001	1.4025760E-003	8.347099631583680E-005	0.0000000E+000	-1.0007252E+002	1.0704374E-002	1.0637736E-003	1.0757102E-002	5.6752758E+000	6.627953030143100E-007
3.1621143E+004	9.2569977E+001	9.8870325E+000	9.3096474E+001	-6.0964241E+000	1.975549512499128E+001	2.3203765E-003	3.8417338E-003	5.0906897E-001	5.7417210E-003	1.000000000000000E+000	11	1.3952506E-001	1.4987147E-003	8.438076411866738E-005	0.0000000E+000	-1.0008855E+002	1.0680798E-002	1.1407738E-003	1.0741546E-002	6.0964241E+000	9.097678028305794E-007
2.8188096E+004	9.2632622E+001	1.0704429E+001	9.3249062E+001	-6.5917411E+000	2.035149379327777E+001	2.3047905E-003	3.7563022E-003	5.2746165E-001	6.9507062E-003	1.000000000000000E+000	11	1.3007534E-001	1.3949238E-003	8.594537167827365E-005	0.0000000E+000	-1.0007252E+002	1.0653077E-002	1.2310469E-003	1.0723969E-002	6.5917411E+000	1.564607559606277E-006
2.5116910E+004	9.2733475E+001	1.1653023E+001	9.3462776E+001	-7.1623282E+000	2.081049128176528E+001	2.3345447E-003	3.8501061E-003	5.4377007E-001	8.4530832E-003	1.000000000000000E+000	11	1.3737431E-001	1.4698291E-003	8.757817469090353E-005	0.0000000E+000	-1.0013667E+002	1.0615958E-002	1.3340167E-003	1.0699447E-002	7.1623282E+000	1.632803012629875E-006
2.2389027E+004	9.2804810E+001	1.2737432E+001	9.3674835E+001	-7.8150010E+000	2.140547944334685E+001	2.3328292E-003	3.9422307E-003	5.5808848E-001	1.0318602E-002	1.000000000000000E+000	11	1.2965836E-001	1.3841322E-003	8.760677717740408E-005	0.0000000E+000	-1.0012064E+002	1.0576077E-002	1.4515633E-003	1.0675225E-002	7.8150010E+000	2.860248650055660E-008
1.9948783E+004	9.2988060E+001	1.3964959E+001	9.4030846E+001	-8.5408583E+000	2.186448349183775E+001	2.3155476E-003	3.7797531E-003	5.7129979E-001	1.2600933E-002	1.000000000000000E+000	11	1.3520345E-001	1.4378628E-003	8.823842835992238E-005	0.0000000E+000	-1.0009658E+002	1.0516870E-002	1.5794248E-003	1.0634808E-002	8.5408583E+000	6.316511825182956E-007
1.7786895E+004	9.3038261E+001	1.5369203E+001	9.4299156E+001	-9.3801098E+000	2.232447436699294E+001	2.3275164E-003	3.7996694E-003	5.8219528E-001	1.5465207E-002	1.000000000000000E+000	11	1.3997580E-001	1.4843802E-003	8.842734927358752E-005	0.0000000E+000	-1.0009658E+002	1.0462753E-002	1.7283661E-003	1.0604549E-002	9.3801098E+000	1.889209136651419E-007
1.5847686E+004	9.3188454E+001	1.6958166E+001	9.4718887E+001	-1.0313661E+001	2.291947642192827E+001	2.3291751E-003	3.9329245E-003	5.9220958E-001	1.8982789E-002	1.000000000000000E+000	11	1.2964948E-001	1.3687817E-003	8.725725490364776E-005	0.0000000E+000	-1.0009658E+002	1.0386972E-002	1.8901910E-003	1.0557557E-002	1.0313661E+001	-1.170094369939764E-006
1.4121879E+004	9.3366913E+001	1.8737574E+001	9.5228554E+001	-1.1347803E+001	2.337847487037652E+001	2.3151559E-003	3.8000394E-003	6.0147047E-001	2.3286629E-002	1.000000000000000E+000	11	1.3289733E-001	1.3955618E-003	8.881771398604097E-005	0.0000000E+000	-1.0005648E+002	1.0295765E-002	2.0662313E-003	1.0501052E-002	1.1347803E+001	1.560459082393213E-006
1.2590932E+004	9.3575752E+001	2.0729933E+001	9.5844414E+001	-1.2491064E+001	2.383748254555394E+001	2.3360732E-003	3.9945301E-003	6.0976762E-001	2.8525058E-002	1.000000000000000E+000	11	1.3561004E-001	1.4148977E-003	8.852405462699567E-005	0.0000000E+000	-1.0005648E+002	1.0186611E-002	2.2566505E-003	1.0433576E-002	1.2491064E+001	-2.936593590453009E-007
1.1217711E+004	9.3844681E+001	2.2975832E+001	9.6616318E+001	-1.3757019E+001	2.429747243403108E+001	2.3412001E-003	3.8251658E-003	6.1751097E-001	3.4920961E-002	1.000000000000000E+000	11	1.3785228E-001	1.4268012E-003	8.971417798726017E-005	0.0000000E+000	-1.0007252E+002	1.0053301E-002	2.4613324E-003	1.0350218E-002	1.3757019E+001	1.190123360264502E-006
1.0002229E+004	9.4123863E+001	2.5468088E+001	9.7508591E+001	-1.5140574E+001	2.475648962918785E+001	2.3221287E-003	3.8216289E-003	6.2477976E-001	4.2622007E-002	1.000000000000000E+000	11	1.3963610E-001	1.4320390E-003	9.145106186820582E-005	0.0000000E+000	-9.9984306E+001	9.8995166E-003	2.6786167E-003	1.0255506E-002	1.5140574E+001	1.736883880945646E-006
8.9149297E+003	9.4435959E+001	2.8251524E+001	9.8571289E+001	-1.6655113E+001	2.538091984554194E+001	2.3645030E-003	4.1409968E-003	6.3191742E-001	5.1909067E-002	1.000000000000000E+000	11	1.2939245E-001	1.3126788E-003	9.087629270939053E-005	0.0000000E+000	-1.0007252E+002	9.7193345E-003	2.9076422E-003	1.0144942E-002	1.6655113E+001	-5.747691588152914E-007
7.9439976E+003	9.4827850E+001	3.1360994E+001	9.9879089E+001	-1.8299828E+001	2.590698960385635E+001	2.3910878E-003	4.3583792E-003	6.3883871E-001	6.2982760E-002	1.000000000000000E+000	11	1.3037789E-001	1.3053572E-003	9.119733809597609E-005	0.0000000E+000	-1.0014469E+002	9.5057581E-003	3.1436970E-003	1.0012106E-002	1.8299828E+001	3.210453865855616E-007
7.0822334E+003	9.5293663E+001	3.4816490E+001	1.0145477E+002	-2.0070280E+001	2.648387851126608E+001	2.3988991E-003	4.4901506E-003	6.4545345E-001	7.6013356E-002	1.000000000000000E+000	11	1.3112533E-001	1.2924511E-003	9.277216630940611E-005	0.0000000E+000	-1.0012865E+002	9.2580402E-003	3.3825173E-003	9.8566087E-003	2.0070280E+001	1.574828213430016E-006
6.3077344E+003	9.5836395E+001	3.8684399E+001	1.0334940E+002	-2.1981485E+001	2.711856192801497E+001	2.4045480E-003	4.1452758E-003	6.5224516E-001	9.1383271E-002	1.000000000000000E+000	11	1.3165554E-001	1.2738879E-003	9.311025960052049E-005	0.0000000E+000	-1.0007252E+002	8.9725237E-003	3.6217624E-003	9.6759154E-003	2.1981485E+001	3.380932911143856E-007
5.6210552E+003	9.6452148E+001	4.2964199E+001	1.0558854E+002	-2.4010378E+001	2.781926724131336E+001	2.4120051E-003	4.2068753E-003	6.5901536E-001	1.0911273E-001	1.000000000000000E+000	11	1.3199319E-001	1.2500712E-003	9.431476090298707E-005	0.0000000E+000	-1.0005648E+002	8.6512398E-003	3.8536577E-003	9.4707245E-003	2.4010378E+001	1.204501302466576E-006
5.0116035E+003	9.7137581E+001	4.7678474E+001	1.0820789E+002	-2.6143398E+001	2.857969746414892E+001	2.4325680E-003	4.3950379E-003	6.6607183E-001	1.2931472E-001	1.000000000000000E+000	11	1.3217905E-001	1.2215289E-003	9.566423152198291E-005	0.0000000E+000	-1.0007252E+002	8.2960138E-003	4.0719700E-003	9.2414711E-003	2.6143398E+001	1.349470618995844E-006
4.4664292E+003	9.7951065E+001	5.2916855E+001	1.1133106E+002	-2.8379587E+001	2.933969054024783E+001	2.4197605E-003	4.2119008E-003	6.7338842E-001	1.5213215E-001	1.000000000000000E+000	11	1.3224441E-001	1.1878483E-003	9.704750692850858E-005	0.0000000E+000	-1.0005648E+002	7.9027172E-003	4.2693457E-003	8.9822188E-003	2.8379587E+001	1.383275406525666E-006
3.9812742E+003	9.8890732E+001	5.8726242E+001	1.1501369E+002	-3.0703951E+001	3.009967614967900E+001	2.4029820E-003	4.1834242E-003	6.8071580E-001	1.7747255E-001	1.000000000000000E+000	11	1.3222088E-001	1.1496099E-003	9.695307705401987E-005	0.0000000E+000	-1.0007252E+002	7.4757803E-003	4.4394908E-003	8.6946171E-003	3.0703951E+001	-9.442987448871011E-008
