EC-Lab ASCII FILE
Nb header lines : 75                          

Potentio Electrochemical Impedance Spectroscopy

Run on channel : 3 (SN 20921)
User : 
CE vs. WE compliance from -10 V to 10 V
Electrode connection : standard
Ewe ctrl range : min = -10.00 V, max = 10.00 V
Safety Limits :
	Do not start on E overload
Acquisition started on : 01/22/2020 09:35:42
Technique started on : 01/22/2020 09:35:44
Saved on :
	File : DE_49_3_30.mpr
	Directory : P:\Chemistry\Data\VMP3\Kyler\DOE\DE_49\30C\
	Host : 10.0.4.99
Device : VMP3 (SN 0183)
Address : USB
EC-Lab for windows v11.33 (software)
Internet server v11.32 (firmware)
Command interpretor v11.33 (firmware)
Electrode material : 
Initial state : 
Electrolyte : 
Comments : 
Electrode surface area : 0.001 cm²
Characteristic mass : 0.001 g
Equivalent Weight : 0.000 g/eq.
Density : 0.000 g/cm3
Record Analogic IN 1
Cycle Definition : Charge/Discharge alternance
External device configuration :
   device type : Thermostat
   device name : Other
   Analog OUT : 
      mode : E/V
      unit : T/°C
      max : 400.000 at 5.000 V
      min : -100.000 at 0.000 V
      current : 0.000
   Analog IN 1 : 
      unit : T/°C
      max : 400.000 at 5.000 V
      min : -100.000 at 0.000 V
Mode                Single sine         
E (V)               0.0000              
vs.                 Eoc                 
tE (h:m:s)          0:00:0.0000         
record              0                   
dI                  1.000               
unit dI             mA                  
dt (s)              0.000               
fi                  1.000               
unit fi             MHz                 
ff                  1.000               
unit ff             Hz                  
Nd                  20                  
Points              per decade          
spacing             Logarithmic         
Va (mV)             128.0               
pw                  0.50                
Na                  3                   
corr                0                   
E range min (V)     -10.000             
E range max (V)     10.000              
I Range             Auto                
Bandwidth           5                   
nc cycles           0                   
goto Ns'            0                   
nr cycles           0                   
inc. cycle          1                   

freq/Hz	Re(Z)/Ohm	-Im(Z)/Ohm	|Z|/Ohm	Phase(Z)/deg	time/s	<Ewe>/V	<I>/mA	Cs/µF	Cp/µF	cycle number	I Range	|Ewe|/V	|I|/A	(Q-Qo)/mA.h	Analog OUT/V	Analog IN 1/V	Re(Y)/Ohm-1	Im(Y)/Ohm-1	|Y|/Ohm-1	Phase(Y)/deg	dq/mA.h	
1.0000186E+006	4.2376682E+001	-1.1800246E+001	4.3988964E+001	1.5560438E+001	2.384486939903582E+000	-3.1792179E-003	-5.2297965E-002	-1.3487175E-002	-9.7054499E-004	1.000000000000000E+000	10	1.0957607E-004	2.4909900E-006	1.030892716044440E-005	0.0000000E+000	-1.0007990E+002	2.1899767E-002	-6.0982276E-003	2.2732975E-002	-1.5560438E+001	1.030892716044440E-005
8.9124669E+005	4.3203213E+001	-2.5250607E+000	4.3276939E+001	3.3449116E+000	2.979484061506810E+000	-2.7626369E-003	-4.2435002E-002	-7.0721328E-002	-2.4075812E-004	1.000000000000000E+000	10	2.2088240E-004	5.1039283E-006	3.357175625274572E-006	0.0000000E+000	-1.0006387E+002	2.3067629E-002	-1.3482138E-003	2.3106994E-002	-3.3449116E+000	-6.951751535169832E-006
7.9433269E+005	4.1780571E+001	-2.3779664E+000	4.1848186E+001	3.2575095E+000	3.574493476393400E+000	-2.4033494E-003	-3.3485450E-002	-8.4258161E-002	-2.7206339E-004	1.000000000000000E+000	10	8.7468070E-004	2.0901281E-005	-2.079302240999823E-006	0.0000000E+000	-1.0013602E+002	2.3857288E-002	-1.3578520E-003	2.3895899E-002	-3.2575095E+000	-5.436477866274395E-006
7.0794981E+005	4.1534397E+001	-2.4000731E+000	4.1603683E+001	3.3071697E+000	4.169490437983768E+000	-2.0999764E-003	-2.6360853E-002	-9.3668424E-002	-3.1172996E-004	1.000000000000000E+000	10	2.0056835E-003	4.8209276E-005	-6.575214280383887E-006	0.0000000E+000	-1.0008792E+002	2.3996303E-002	-1.3866309E-003	2.4036333E-002	-3.3071697E+000	-4.495912039384064E-006
6.3095681E+005	4.1356571E+001	-2.0103817E+000	4.1405407E+001	2.7830107E+000	4.765483159659198E+000	-1.8607745E-003	-2.0526210E-002	-1.2547059E-001	-2.9579096E-004	1.000000000000000E+000	10	3.7480851E-003	9.0521637E-005	-1.023013032074677E-005	0.0000000E+000	-1.0004784E+002	2.4122950E-002	-1.1726392E-003	2.4151435E-002	-2.7830107E+000	-3.654916040362877E-006
5.6234225E+005	4.1252872E+001	-1.7466625E+000	4.1289833E+001	2.4244773E+000	5.361477374652168E+000	-1.6407511E-003	-1.4525662E-002	-1.6203560E-001	-2.8996271E-004	1.000000000000000E+000	10	6.2209605E-003	1.5066567E-004	-1.289197629550841E-005	0.0000000E+000	-1.0007188E+002	2.4197359E-002	-1.0245255E-003	2.4219038E-002	-2.4244773E+000	-2.661845974761643E-006
5.0120619E+005	4.1042076E+001	-1.5118452E+000	4.1069912E+001	2.1096206E+000	5.958489456301322E+000	-1.4575009E-003	-9.9064149E-003	-2.1003728E-001	-2.8461876E-004	1.000000000000000E+000	10	9.5601939E-003	2.3277853E-004	-1.468530917478105E-005	0.0000000E+000	-1.0007990E+002	2.4332222E-002	-8.9631323E-004	2.4348725E-002	-2.1096206E+000	-1.793332879272637E-006
4.4668572E+005	4.0940338E+001	-1.2724092E+000	4.0960106E+001	1.7801569E+000	6.553473004576517E+000	-1.3560347E-003	-7.2817542E-003	-2.8002140E-001	-2.7022325E-004	1.000000000000000E+000	10	1.3908111E-002	3.3955261E-004	-1.601981463448222E-005	0.0000000E+000	-1.0011999E+002	2.4402216E-002	-7.5841113E-004	2.4413999E-002	-1.7801569E+000	-1.334505459701175E-006
3.9810347E+005	4.0822937E+001	-1.1007258E+000	4.0837772E+001	1.5445157E+000	7.149487566231983E+000	-1.3110607E-003	-6.3142814E-003	-3.6319932E-001	-2.6386345E-004	1.000000000000000E+000	10	1.9459713E-002	4.7651259E-004	-1.595526628775082E-005	0.0000000E+000	-1.0011197E+002	2.4478238E-002	-6.6001690E-004	2.4487134E-002	-1.5445157E+000	6.454834673139581E-008
3.5480997E+005	4.0729164E+001	-9.4924694E-001	4.0740223E+001	1.3351121E+000	7.745488714514067E+000	-1.3144340E-003	-6.6032112E-003	-4.7254711E-001	-2.5654098E-004	1.000000000000000E+000	10	2.6397139E-002	6.4793800E-004	-1.873196409043158E-005	0.0000000E+000	-1.0007188E+002	2.4539102E-002	-5.7191617E-004	2.4545766E-002	-1.3351121E+000	-2.776697802680752E-006
3.1622997E+005	4.0638866E+001	-8.0500621E-001	4.0646839E+001	1.1348108E+000	8.340488182817353E+000	-1.3138560E-003	-6.4522163E-003	-6.2519842E-001	-2.4522390E-004	1.000000000000000E+000	10	3.4999959E-002	8.6107454E-004	-1.965125483826685E-005	0.0000000E+000	-1.0010395E+002	2.4597334E-002	-4.8724306E-004	2.4602160E-002	-1.1348108E+000	-9.192907478352713E-007
2.8183453E+005	4.0558201E+001	-6.7124385E-001	4.0563755E+001	9.4816655E-001	8.935491491080029E+000	-1.2950685E-003	-6.1036218E-003	-8.4128976E-001	-2.3037213E-004	1.000000000000000E+000	10	4.5720574E-002	1.1271287E-003	-2.289651127295413E-005	0.0000000E+000	-1.0007990E+002	2.4649175E-002	-4.0794726E-004	2.4652550E-002	-9.4816655E-001	-3.245256434687287E-006
2.5118764E+005	4.0457844E+001	-5.6319869E-001	4.0461765E+001	7.9754180E-001	9.530487972631818E+000	-1.2897562E-003	-5.8407709E-003	-1.1250200E+000	-2.1796855E-004	1.000000000000000E+000	10	5.9017915E-002	1.4586095E-003	-2.647891666991766E-005	0.0000000E+000	-1.0011197E+002	2.4712296E-002	-3.4401071E-004	2.4714690E-002	-7.9754180E-001	-3.582405396963521E-006
2.2387173E+005	4.0382076E+001	-4.6873406E-001	4.0384796E+001	6.6502964E-001	1.012649120096467E+001	-1.2491804E-003	-4.5172530E-003	-1.5166814E+000	-2.0432033E-004	1.000000000000000E+000	10	7.5457558E-002	1.8684645E-003	-2.756163286192006E-005	0.0000000E+000	-1.0007990E+002	2.4760127E-002	-2.8740262E-004	2.4761794E-002	-6.6502964E-001	-1.082716192002409E-006
1.9954350E+005	4.0267349E+001	-3.9344278E-001	4.0269272E+001	5.5980569E-001	1.072347837596317E+001	-1.2887117E-003	-5.8966721E-003	-2.0272205E+000	-1.9351587E-004	1.000000000000000E+000	10	9.5179677E-002	2.3635807E-003	-3.078578116325014E-005	0.0000000E+000	-1.0005585E+002	2.4831645E-002	-2.4262413E-004	2.4832830E-002	-5.5980569E-001	-3.224148301330080E-006
1.7783180E+005	4.0145458E+001	-3.2843074E-001	4.0146801E+001	4.6872738E-001	1.118249421109795E+001	-1.2508013E-003	-5.6636487E-003	-2.7250028E+000	-1.8236968E-004	1.000000000000000E+000	10	1.1791153E-001	2.9370093E-003	-3.344237339402833E-005	0.0000000E+000	-1.0010395E+002	2.4907753E-002	-2.0377077E-004	2.4908585E-002	-4.6872738E-001	-2.656592230778188E-006
1.5848613E+005	4.0063644E+001	-2.6307878E-001	4.0064507E+001	3.7622860E-001	1.177848989274935E+001	-1.1913819E-003	-3.7044536E-003	-3.8171840E+000	-1.6458685E-004	1.000000000000000E+000	10	1.2891284E-001	3.2176320E-003	-3.178047928408099E-005	0.0000000E+000	-1.0007990E+002	2.4959210E-002	-1.6389521E-004	2.4959749E-002	-3.7622860E-001	1.661894109947345E-006
1.4125594E+005	4.0040806E+001	-2.0645066E-001	4.0041340E+001	2.9541478E-001	1.237448584105005E+001	-1.1672829E-003	-3.4882193E-003	-5.4575424E+000	-1.4508165E-004	1.000000000000000E+000	10	1.3046838E-001	3.2583422E-003	-3.873816612497386E-005	0.0000000E+000	-1.0006387E+002	2.4973858E-002	-1.2876536E-004	2.4974190E-002	-2.9541478E-001	-6.957686840892871E-006
1.2590930E+005	4.0054302E+001	-1.5658864E-001	4.0054607E+001	2.2399150E-001	1.297047384272446E+001	-1.1419539E-003	-2.6344592E-003	-8.0723886E+000	-1.2337230E-004	1.000000000000000E+000	10	1.3039353E-001	3.2553943E-003	-4.233544949553389E-005	0.0000000E+000	-1.0008792E+002	2.4965728E-002	-9.7601238E-005	2.4965918E-002	-2.2399150E-001	-3.597283370560035E-006
1.1220494E+005	4.0055843E+001	-1.0972764E-001	4.0055992E+001	1.5695375E-001	1.356547867096378E+001	-1.0587531E-003	-3.3975314E-004	-1.2926833E+001	-9.7003896E-005	1.000000000000000E+000	10	1.2996542E-001	3.2445937E-003	-3.912317575345191E-005	0.0000000E+000	-1.0009594E+002	2.4964960E-002	-6.8388174E-005	2.4965053E-002	-1.5695375E-001	3.212273742081983E-006
1.0000371E+005	4.0081047E+001	-7.5317621E-002	4.0081120E+001	1.0766627E-001	1.416148608594085E+001	-1.1225889E-003	-2.3473930E-003	-2.1130384E+001	-7.4614101E-005	1.000000000000000E+000	10	1.2980174E-001	3.2384756E-003	-3.338508460686231E-005	0.0000000E+000	-1.0010395E+002	2.4949359E-002	-4.6883168E-005	2.4949403E-002	-1.0766627E-001	5.738091146589596E-006
8.9129305E+004	4.0095333E+001	-3.7362017E-002	4.0095352E+001	5.3389881E-002	1.475648814087617E+001	-1.1027206E-003	-1.5942941E-003	-4.7793552E+001	-4.1499403E-005	1.000000000000000E+000	10	1.2954745E-001	3.2309841E-003	-3.754247000190015E-005	0.0000000E+000	-1.0010395E+002	2.4940535E-002	-2.3240327E-005	2.4940547E-002	-5.3389881E-002	-4.157385395037838E-006
7.9433273E+004	4.0102394E+001	-8.0887377E-003	4.0102394E+001	1.1556680E-002	1.535149550248752E+001	-1.0815291E-003	-9.4000041E-004	-2.4770622E+002	-1.0077617E-005	1.000000000000000E+000	10	1.2939808E-001	3.2266921E-003	-3.308928992497062E-005	0.0000000E+000	-1.0011999E+002	2.4936168E-002	-5.0296781E-006	2.4936168E-002	-1.1556680E-002	4.453180076929530E-006
7.0794977E+004	4.0066406E+001	1.4051193E-002	4.0066410E+001	-2.0093493E-002	1.581147176431841E+001	-1.1023288E-003	-1.4936287E-003	1.5999429E+002	1.9677505E-005	1.000000000000000E+000	10	1.3977434E-001	3.4885665E-003	-3.237772122279017E-005	0.0000000E+000	-1.0010395E+002	2.4958560E-002	8.7529079E-006	2.4958562E-002	2.0093493E-002	7.115687021804547E-007
6.3093828E+004	4.0140007E+001	3.3014443E-002	4.0140022E+001	-4.7124751E-002	1.640647141923546E+001	-1.0708121E-003	-9.3626935E-004	7.6406319E+001	5.1687079E-005	1.000000000000000E+000	10	1.3024521E-001	3.2447716E-003	-3.175299172415139E-005	0.0000000E+000	-1.0012801E+002	2.4912782E-002	2.0490321E-005	2.4912791E-002	4.7124751E-002	6.247294986387757E-007
5.6237012E+004	4.0103439E+001	4.4794410E-002	4.0103466E+001	-6.3997738E-002	1.686549130771891E+001	-1.0793853E-003	-1.1897812E-003	6.3179188E+001	7.8823898E-005	1.000000000000000E+000	10	1.3874221E-001	3.4596063E-003	-3.417509385801774E-005	0.0000000E+000	-1.0009594E+002	2.4935486E-002	2.7852231E-005	2.4935501E-002	6.3997738E-002	-2.422102133866351E-006
5.0122477E+004	4.0132893E+001	6.1811291E-002	4.0132938E+001	-8.8244908E-002	1.746049645598396E+001	-1.0627792E-003	-2.3164100E-004	5.1371212E+001	1.2185785E-004	1.000000000000000E+000	10	1.2988904E-001	3.2364698E-003	-2.943139851490398E-005	0.0000000E+000	-1.0009594E+002	2.4917159E-002	3.8376547E-005	2.4917189E-002	8.8244908E-002	4.743695343113765E-006
4.4666715E+004	4.0117138E+001	6.5548249E-002	4.0117191E+001	-9.3616717E-002	1.791948034442612E+001	-1.0591258E-003	-5.1497453E-004	5.4359447E+001	1.4512298E-004	1.000000000000000E+000	10	1.3649353E-001	3.4023700E-003	-3.121987457882561E-005	0.0000000E+000	-1.0011197E+002	2.4926936E-002	4.0728653E-005	2.4926970E-002	9.3616717E-002	-1.788476063921635E-006
3.9814063E+004	4.0171227E+001	7.1905263E-002	4.0171291E+001	-1.0255757E-001	1.851449378600228E+001	-1.0336105E-003	5.8297045E-004	5.5593365E+001	1.7812003E-004	1.000000000000000E+000	10	1.2944584E-001	3.2223470E-003	-3.160848114554149E-005	0.0000000E+000	-1.0008792E+002	2.4893360E-002	4.4558346E-005	2.4893399E-002	1.0255757E-001	-3.886065667158787E-007
3.5480996E+004	4.0164112E+001	7.9963021E-002	4.0164192E+001	-1.1407043E-001	1.897448396790423E+001	-1.0515960E-003	-7.5544824E-004	5.6096420E+001	2.2234913E-004	1.000000000000000E+000	10	1.3433239E-001	3.3445808E-003	-3.284597237785864E-005	0.0000000E+000	-1.0007990E+002	2.4897750E-002	4.9569109E-005	2.4897799E-002	1.1407043E-001	-1.237491232317148E-006
3.1621143E+004	4.0136486E+001	7.9148419E-002	4.0136562E+001	-1.1298610E-001	1.943447262971313E+001	-1.0528633E-003	-2.6704924E-004	6.3591686E+001	2.4728882E-004	1.000000000000000E+000	10	1.3865909E-001	3.4546827E-003	-3.439257253602328E-005	0.0000000E+000	-1.0008792E+002	2.4914891E-002	4.9131715E-005	2.4914939E-002	1.1298610E-001	-1.546600158164643E-006
2.8188096E+004	4.0177040E+001	8.0373012E-002	4.0177120E+001	-1.1461841E-001	2.002948084464879E+001	-1.0487820E-003	-3.5094577E-004	7.0249649E+001	2.8112988E-004	1.000000000000000E+000	10	1.2943253E-001	3.2215482E-003	-3.570343412758990E-005	0.0000000E+000	-1.0009594E+002	2.4889737E-002	4.9791204E-005	2.4889788E-002	1.1461841E-001	-1.310861591566612E-006
2.5116910E+004	4.0159286E+001	8.0307677E-002	4.0159367E+001	-1.1457586E-001	2.048949489314691E+001	-1.0470112E-003	-3.0993021E-004	7.8903610E+001	3.1552755E-004	1.000000000000000E+000	10	1.3236168E-001	3.2959105E-003	-3.358592770076615E-005	0.0000000E+000	-1.0009594E+002	2.4900740E-002	4.9794726E-005	2.4900790E-002	1.1457586E-001	2.117506426823742E-006
2.2389027E+004	4.0127541E+001	7.3568292E-002	4.0127609E+001	-1.0504376E-001	2.094848894161987E+001	-1.0364060E-003	-1.2910913E-004	9.6626053E+001	3.2477980E-004	1.000000000000000E+000	10	1.3481303E-001	3.3596077E-003	-3.044004339797215E-005	0.0000000E+000	-1.0012801E+002	2.4920456E-002	4.5688204E-005	2.4920497E-002	1.0504376E-001	3.145884302794000E-006
1.9948783E+004	4.0104706E+001	7.5885087E-002	4.0104778E+001	-1.0841347E-001	2.140847584346193E+001	-1.0337593E-003	4.4253433E-005	1.0513499E+002	3.7641588E-004	1.000000000000000E+000	10	1.3687994E-001	3.4130581E-003	-3.089969424854240E-005	0.0000000E+000	-1.0008792E+002	2.4934640E-002	4.7180682E-005	2.4934685E-002	1.0841347E-001	-4.596508505702465E-007
1.7786895E+004	4.0089367E+001	7.1032315E-002	4.0089428E+001	-1.0151938E-001	2.186849511865876E+001	-1.0404688E-003	-1.9248453E-004	1.2596910E+002	3.9547248E-004	1.000000000000000E+000	10	1.3858613E-001	3.4569248E-003	-3.387666480796826E-005	0.0000000E+000	-1.0011197E+002	2.4944194E-002	4.4197353E-005	2.4944233E-002	1.0151938E-001	-2.976970559425858E-006
1.5847686E+004	4.0062302E+001	6.8108127E-002	4.0062359E+001	-9.7405903E-002	2.232748663381790E+001	-1.0431715E-003	-1.5147433E-004	1.4745358E+002	4.2616736E-004	1.000000000000000E+000	10	1.3999985E-001	3.4945484E-003	-3.667611242975626E-005	0.0000000E+000	-1.0015205E+002	2.4961051E-002	4.2435167E-005	2.4961086E-002	9.7405903E-002	-2.799447621788002E-006
1.4121879E+004	4.0130821E+001	6.6020198E-002	4.0130875E+001	-9.4258614E-002	2.292349503547302E+001	-1.0255403E-003	4.6552860E-004	1.7070680E+002	4.6200558E-004	1.000000000000000E+000	10	1.2931693E-001	3.2223801E-003	-3.677497432479544E-005	0.0000000E+000	-1.0010395E+002	2.4918437E-002	4.0993935E-005	2.4918471E-002	9.4258614E-002	-9.886189503918329E-008
1.2590932E+004	4.0104389E+001	5.8069028E-002	4.0104431E+001	-8.2961194E-002	2.338348417732050E+001	-1.0444206E-003	-4.6651778E-004	2.1767960E+002	4.5637527E-004	1.000000000000000E+000	10	1.3017142E-001	3.2458112E-003	-3.841325715611068E-005	0.0000000E+000	-1.0007990E+002	2.4934875E-002	3.6104379E-005	2.4934901E-002	8.2961194E-002	-1.638282831315240E-006
1.1217711E+004	4.0096687E+001	5.6671605E-002	4.0096725E+001	-8.0980293E-002	2.384247790576774E+001	-1.0435072E-003	-3.2857241E-004	2.5035162E+002	5.0010777E-004	1.000000000000000E+000	10	1.3086356E-001	3.2636970E-003	-3.808149875159627E-005	0.0000000E+000	-1.0010395E+002	2.4939667E-002	3.5249068E-005	2.4939692E-002	8.0980293E-002	3.317584045144084E-007
1.0002229E+004	4.0080784E+001	5.2900080E-002	4.0080818E+001	-7.5621016E-002	2.430249544759863E+001	-1.0297151E-003	1.5982191E-004	3.0079248E+002	5.2397005E-004	1.000000000000000E+000	10	1.3141672E-001	3.2787935E-003	-3.809777212761078E-005	0.0000000E+000	-1.0007990E+002	2.4949567E-002	3.2929351E-005	2.4949590E-002	7.5621016E-002	-1.627337601450135E-008
8.9149297E+003	4.0080288E+001	4.8148949E-002	4.0080318E+001	-6.8830095E-002	2.478491813721485E+001	-1.0233966E-003	5.6619814E-004	3.7077924E+002	5.3508981E-004	1.000000000000000E+000	10	1.3186020E-001	3.2898989E-003	-3.780243558971981E-005	0.0000000E+000	-1.0007990E+002	2.4949882E-002	2.9972603E-005	2.4949901E-002	6.8830095E-002	2.953365378909688E-007
7.9439976E+003	4.0077328E+001	4.6982963E-002	4.0077354E+001	-6.7168258E-002	2.531099882887793E+001	-1.0280749E-003	4.4502848E-004	4.2642297E+002	5.8603467E-004	1.000000000000000E+000	10	1.3221774E-001	3.2990633E-003	-3.704662862190970E-005	0.0000000E+000	-1.0007990E+002	2.4951730E-002	2.9251107E-005	2.4951747E-002	6.7168258E-002	7.558069678101015E-007
7.0822334E+003	4.0072643E+001	4.4716220E-002	4.0072670E+001	-6.3935123E-002	2.588786480293493E+001	-1.0154009E-003	6.6126575E-004	5.0255643E+002	6.2577531E-004	1.000000000000000E+000	10	1.3250129E-001	3.3065251E-003	-3.992822195078447E-005	0.0000000E+000	-1.0011999E+002	2.4954649E-002	2.7846365E-005	2.4954664E-002	6.3935123E-002	-2.881593328874762E-006
6.3077344E+003	4.0084129E+001	3.7953258E-002	4.0084148E+001	-5.4249916E-002	2.652255888641230E+001	-1.0166683E-003	-1.1170848E-003	6.6481018E+002	5.9600576E-004	1.000000000000000E+000	10	1.3273415E-001	3.3113875E-003	-3.805043208701116E-005	0.0000000E+000	-1.0007990E+002	2.4947507E-002	2.3621296E-005	2.4947518E-002	5.4249916E-002	1.877789863773307E-006
5.6210552E+003	4.0146793E+001	9.5541943E-003	4.0146793E+001	-1.3635335E-002	2.745827794415527E+001	-1.0163520E-003	-2.1784384E-002	2.9635222E+003	1.6783967E-004	1.000000000000000E+000	11	1.2650268E-001	3.1510033E-003	-4.288292708316294E-005	0.0000000E+000	-1.0004784E+002	2.4908589E-002	5.9277831E-006	2.4908589E-002	1.3635335E-002	-4.832494996151778E-006
5.0116035E+003	4.0135735E+001	9.7732460E-003	4.0135735E+001	-1.3951801E-002	2.821868384700792E+001	-1.0163145E-003	-2.1778418E-002	3.2494106E+003	1.9267254E-004	1.000000000000000E+000	11	1.2786877E-001	3.1859083E-003	-4.537295160534914E-005	0.0000000E+000	-1.0007188E+002	2.4915453E-002	6.0670341E-006	2.4915453E-002	1.3951801E-002	-2.490024522186207E-006
4.4664292E+003	4.0119366E+001	1.0328426E-002	4.0119366E+001	-1.4750364E-002	2.897770814972318E+001	-1.0148234E-003	-2.1762578E-002	3.4500510E+003	2.2865763E-004	1.000000000000000E+000	11	1.2899041E-001	3.2151658E-003	-5.066595788501662E-005	0.0000000E+000	-1.0011197E+002	2.4925618E-002	6.4169112E-006	2.4925618E-002	1.4750364E-002	-5.293006279667478E-006
