EC-Lab ASCII FILE
Nb header lines : 75                          

Potentio Electrochemical Impedance Spectroscopy

Run on channel : 4 (SN 4192)
User : 
CE vs. WE compliance from -10 V to 10 V
Electrode connection : standard
Ewe ctrl range : min = -10.00 V, max = 10.00 V
Safety Limits :
	Do not start on E overload
Acquisition started on : 01/22/2020 09:36:11
Technique started on : 01/22/2020 09:36:12
Saved on :
	File : DE_49_8_30.mpr
	Directory : P:\Chemistry\Data\VMP3\Kyler\DOE\DE_49\30C\
	Host : 10.0.4.99
Device : VMP3 (SN 0183)
Address : USB
EC-Lab for windows v11.33 (software)
Internet server v11.32 (firmware)
Command interpretor v11.33 (firmware)
Electrode material : 
Initial state : 
Electrolyte : 
Comments : 
Electrode surface area : 0.001 cm²
Characteristic mass : 0.001 g
Equivalent Weight : 0.000 g/eq.
Density : 0.000 g/cm3
Record Analogic IN 1
Cycle Definition : Charge/Discharge alternance
External device configuration :
   device type : Thermostat
   device name : Other
   Analog OUT : 
      mode : E/V
      unit : T/°C
      max : 400.000 at 5.000 V
      min : -100.000 at 0.000 V
      current : 0.000
   Analog IN 1 : 
      unit : T/°C
      max : 400.000 at 5.000 V
      min : -100.000 at 0.000 V
Mode                Single sine         
E (V)               0.0000              
vs.                 Eoc                 
tE (h:m:s)          0:00:0.0000         
record              0                   
dI                  1.000               
unit dI             mA                  
dt (s)              0.000               
fi                  1.000               
unit fi             MHz                 
ff                  1.000               
unit ff             Hz                  
Nd                  20                  
Points              per decade          
spacing             Logarithmic         
Va (mV)             128.0               
pw                  0.50                
Na                  3                   
corr                0                   
E range min (V)     -10.000             
E range max (V)     10.000              
I Range             Auto                
Bandwidth           5                   
nc cycles           0                   
goto Ns'            0                   
nr cycles           0                   
inc. cycle          1                   

freq/Hz	Re(Z)/Ohm	-Im(Z)/Ohm	|Z|/Ohm	Phase(Z)/deg	time/s	<Ewe>/V	<I>/mA	Cs/µF	Cp/µF	cycle number	I Range	|Ewe|/V	|I|/A	(Q-Qo)/mA.h	Analog OUT/V	Analog IN 1/V	Re(Y)/Ohm-1	Im(Y)/Ohm-1	|Y|/Ohm-1	Phase(Y)/deg	dq/mA.h	
1.0000186E+006	7.9684738E+001	2.9838062E+002	3.0883759E+002	-7.5047684E+001	1.951480625983095E+000	-5.3834640E-003	3.1424495E-003	5.3338578E-004	4.9787736E-004	1.000000000000000E+000	11	2.0296450E-003	6.5718846E-006	9.080672039971331E-007	0.0000000E+000	-1.0016073E+002	8.3543936E-004	3.1283137E-003	3.2379478E-003	7.5047684E+001	9.080672039971331E-007
8.9124669E+005	8.9887802E+001	3.1756454E+002	3.3004099E+002	-7.4195641E+001	2.547486494324403E+000	-5.1537105E-003	3.1688784E-003	5.6232861E-004	5.2061718E-004	1.000000000000000E+000	11	2.5931154E-003	7.8569501E-006	1.443754165038222E-006	0.0000000E+000	-1.0011262E+002	8.2521100E-004	2.9153873E-003	3.0299267E-003	7.4195641E+001	5.356869610410892E-007
7.9433269E+005	1.0441884E+002	3.5785236E+002	3.7277554E+002	-7.3733124E+001	3.142481802584371E+000	-4.9769026E-003	3.5262210E-003	5.5990432E-004	5.1597273E-004	1.000000000000000E+000	11	2.3199173E-003	6.2233626E-006	2.012644812857009E-006	0.0000000E+000	-1.0012064E+002	7.5142208E-004	2.5751889E-003	2.6825794E-003	7.3733124E+001	5.688906478187870E-007
7.0794981E+005	1.2037217E+002	3.8430905E+002	4.0271939E+002	-7.2608551E+001	3.738484604196856E+000	-4.8313588E-003	3.7839925E-003	5.8497465E-004	5.3271285E-004	1.000000000000000E+000	11	6.3375680E-004	1.5736933E-006	2.633461568018295E-006	0.0000000E+000	-1.0011262E+002	7.4220012E-004	2.3696027E-003	2.4831186E-003	7.2608551E+001	6.208167551612860E-007
6.3095681E+005	1.3719580E+002	4.2599625E+002	4.4754385E+002	-7.2148392E+001	4.334484792518197E+000	-4.6819369E-003	3.8398274E-003	5.9212680E-004	5.3648191E-004	1.000000000000000E+000	11	2.7493269E-003	6.1431451E-006	3.375412842594314E-006	0.0000000E+000	-1.0012064E+002	6.8496709E-004	2.1268388E-003	2.2344179E-003	7.2148392E+001	7.419512745760183E-007
5.6234225E+005	1.5353342E+002	4.6471820E+002	4.8942365E+002	-7.1717499E+001	4.929481700790348E+000	-4.6102554E-003	4.1063456E-003	6.0901750E-004	5.4908457E-004	1.000000000000000E+000	11	7.9659671E-003	1.6276221E-005	3.994500405673736E-006	0.0000000E+000	-1.0012865E+002	6.4096303E-004	1.9400805E-003	2.0432195E-003	7.1717499E+001	6.190875630794225E-007
5.0120619E+005	2.1128708E+002	5.0131815E+002	5.4402399E+002	-6.7146378E+001	5.830478250252781E+000	-4.6186452E-003	5.6358700E-004	6.3341786E-004	5.3787464E-004	1.000000000000000E+000	12	6.3096639E-003	1.1598136E-005	4.655485343272732E-006	0.0000000E+000	-1.0012064E+002	7.1389903E-004	1.6938593E-003	1.8381543E-003	6.7146378E+001	6.609849375989954E-007
4.4668572E+005	2.3173532E+002	5.4858203E+002	5.9551953E+002	-6.7099541E+001	6.425469745154260E+000	-4.5809867E-003	5.4864737E-004	6.4949598E-004	5.5114721E-004	1.000000000000000E+000	12	1.0311785E-002	1.7315611E-005	4.702012210362631E-006	0.0000000E+000	-1.0008855E+002	6.5343169E-004	1.5468549E-003	1.6792060E-003	6.7099541E+001	4.652686708989947E-008
3.9810347E+005	2.5767996E+002	6.0141895E+002	6.5429633E+002	-6.6807129E+001	7.020477853453485E+000	-4.5066578E-003	5.7364628E-004	6.6473277E-004	5.6163262E-004	1.000000000000000E+000	12	1.5452952E-002	2.3617666E-005	4.855255717143842E-006	0.0000000E+000	-1.0015271E+002	6.0191005E-004	1.4048441E-003	1.5283595E-003	6.6807129E+001	1.532435067812106E-007
3.5480997E+005	2.8348575E+002	6.5977063E+002	7.1809570E+002	-6.6748100E+001	7.615493268327555E+000	-4.5068255E-003	5.5950769E-004	6.7987852E-004	5.7392172E-004	1.000000000000000E+000	12	2.1789439E-002	3.0343364E-005	4.941135900249113E-006	0.0000000E+000	-1.0014469E+002	5.4975168E-004	1.2794648E-003	1.3925721E-003	6.6748100E+001	8.588018310527106E-008
3.1622997E+005	3.1385989E+002	7.2190405E+002	7.8718073E+002	-6.6502197E+001	8.210482789931120E+000	-4.4731749E-003	5.8880961E-004	6.9716829E-004	5.8633753E-004	1.000000000000000E+000	12	2.9503405E-002	3.7479836E-005	5.006584555018991E-006	0.0000000E+000	-1.0013667E+002	5.0650875E-004	1.1650125E-003	1.2703564E-003	6.6502197E+001	6.544865476987834E-008
2.8183453E+005	3.4717419E+002	7.8818488E+002	8.6125800E+002	-6.6227806E+001	8.805494151514722E+000	-4.4746473E-003	5.7439157E-004	7.1646972E-004	6.0005009E-004	1.000000000000000E+000	12	3.8758595E-002	4.5002304E-005	5.193834619299499E-006	0.0000000E+000	-1.0012064E+002	4.6803773E-004	1.0625799E-003	1.1610923E-003	6.6227806E+001	1.872500642805077E-007
2.5118764E+005	3.8439832E+002	8.5729034E+002	9.3952582E+002	-6.5849129E+001	9.400473699817667E+000	-4.4867834E-003	5.7204475E-004	7.3908421E-004	6.1536441E-004	1.000000000000000E+000	12	4.9634233E-002	5.2829026E-005	5.262803718849278E-006	0.0000000E+000	-1.0015271E+002	4.3547581E-004	9.7120402E-004	1.0643667E-003	6.5849129E+001	6.896909954977894E-008
2.2387173E+005	4.2600839E+002	9.2971912E+002	1.0226733E+003	-6.5382187E+001	9.995481674704934E+000	-4.4504669E-003	6.0648832E-004	7.6466129E-004	6.3197332E-004	1.000000000000000E+000	12	6.2475249E-002	6.1090133E-005	5.226842273393332E-006	0.0000000E+000	-1.0012064E+002	4.0732796E-004	8.8895112E-004	9.7782933E-004	6.5382187E+001	-3.596144545594509E-008
1.9954350E+005	4.6854221E+002	1.0061714E+003	1.1099156E+003	-6.5030098E+001	1.059248252972611E+001	-4.4937367E-003	5.0455594E-004	7.9270313E-004	6.5144029E-004	1.000000000000000E+000	12	7.7314191E-002	6.9657719E-005	5.147704838858368E-006	0.0000000E+000	-1.0007252E+002	3.8033712E-004	8.1675546E-004	9.0096937E-004	6.5030098E+001	-7.913743453496469E-008
1.7783180E+005	5.1452924E+002	1.0875022E+003	1.2030800E+003	-6.4679794E+001	1.118749242470949E+001	-4.5321588E-003	5.0606497E-004	8.2296348E-004	6.7243743E-004	1.000000000000000E+000	12	9.4507866E-002	7.8554935E-005	5.066765502929936E-006	0.0000000E+000	-1.0015271E+002	3.5548481E-004	7.5134804E-004	8.3119993E-004	6.4679794E+001	-8.093933592843155E-008
1.5848613E+005	5.6362421E+002	1.1761160E+003	1.3041936E+003	-6.4395088E+001	1.178248341297149E+001	-4.5050890E-003	5.1604968E-004	8.5384439E-004	6.9437630E-004	1.000000000000000E+000	12	1.1443018E-001	8.7740184E-005	5.060729130856796E-006	0.0000000E+000	-1.0011262E+002	3.3136419E-004	6.9145829E-004	7.6675735E-004	6.4395088E+001	-6.036372073140277E-009
1.4125594E+005	6.1426752E+002	1.2701826E+003	1.4109176E+003	-6.4191330E+001	1.224248066145810E+001	-4.4932128E-003	5.5475882E-004	8.8704826E-004	7.1891287E-004	1.000000000000000E+000	12	1.3700099E-001	9.7100630E-005	5.103338272031477E-006	0.0000000E+000	-1.0013667E+002	3.0857034E-004	6.3806196E-004	7.0875860E-004	6.4191330E+001	4.260914117468132E-008
1.2590930E+005	6.6730109E+002	1.3709392E+003	1.5247180E+003	-6.4045616E+001	1.283949063645559E+001	-4.4569527E-003	5.2541948E-004	9.2202809E-004	7.4542075E-004	1.000000000000000E+000	12	1.3111725E-001	8.5994427E-005	5.203187896770639E-006	0.0000000E+000	-1.0010460E+002	2.8704022E-004	5.8971083E-004	6.5585895E-004	6.4045616E+001	9.984962473916150E-008
1.1220494E+005	7.2299579E+002	1.4832029E+003	1.6500344E+003	-6.4012810E+001	1.343448007808183E+001	-4.3588174E-003	5.1100116E-004	9.5632952E-004	7.7272096E-004	1.000000000000000E+000	12	1.3078383E-001	7.9261270E-005	5.126202143805535E-006	0.0000000E+000	-1.0008855E+002	2.6555217E-004	5.4477173E-004	6.0604798E-004	6.4012810E+001	-7.698575296510367E-008
1.0000371E+005	7.8153333E+002	1.6024729E+003	1.7828948E+003	-6.4001297E+001	1.403049106636900E+001	-4.4528330E-003	4.9747713E-004	9.9314644E-004	8.0231193E-004	1.000000000000000E+000	12	1.3042347E-001	7.3152645E-005	5.023526384449926E-006	0.0000000E+000	-1.0004044E+002	2.4586465E-004	5.0412619E-004	5.6088559E-004	6.4001297E+001	-1.026757593556087E-007
8.9129305E+004	8.4245868E+002	1.7347157E+003	1.9284645E+003	-6.4096634E+001	1.462549197467160E+001	-4.4662370E-003	5.2120897E-004	1.0293695E-003	8.3292258E-004	1.000000000000000E+000	12	1.3035408E-001	6.7594752E-005	5.212509129863116E-006	0.0000000E+000	-1.0001638E+002	2.2652977E-004	4.6644991E-004	5.1854725E-004	6.4096634E+001	1.889827454131892E-007
7.9433273E+004	9.0510675E+002	1.8762334E+003	2.0831394E+003	-6.4247047E+001	1.522147600297467E+001	-4.4724825E-003	5.4134551E-004	1.0679006E-003	8.6629915E-004	1.000000000000000E+000	12	1.3002101E-001	6.2415893E-005	5.199998973751361E-006	0.0000000E+000	-1.0017677E+002	2.0857542E-004	4.3236467E-004	4.8004469E-004	6.4247047E+001	-1.251015611175444E-008
7.0794977E+004	9.7221942E+002	2.0350763E+003	2.2553816E+003	-6.4464737E+001	1.581747560462100E+001	-4.3969797E-003	5.3920317E-004	1.1046812E-003	8.9941121E-004	1.000000000000000E+000	12	1.2982197E-001	5.7560977E-005	5.319577391655103E-006	0.0000000E+000	-1.0011262E+002	1.9112798E-004	4.0007429E-004	4.4338396E-004	6.4464737E+001	1.195784179037423E-007
6.3093828E+004	1.0401458E+003	2.2070103E+003	2.4398354E+003	-6.4765884E+001	1.641348173955339E+001	-4.4383476E-003	5.2241923E-004	1.1429545E-003	9.3522592E-004	1.000000000000000E+000	12	1.2950389E-001	5.3078944E-005	5.479961611068979E-006	0.0000000E+000	-1.0009658E+002	1.7473227E-004	3.7075180E-004	4.0986371E-004	6.4765884E+001	1.603842194138753E-007
5.6237012E+004	1.1130867E+003	2.3964917E+003	2.6423728E+003	-6.5086777E+001	1.687348525473499E+001	-4.4379183E-003	5.3579424E-004	1.1809241E-003	9.7137212E-004	1.000000000000000E+000	12	1.4059825E-001	5.3209089E-005	5.523111116476179E-006	0.0000000E+000	-1.0008054E+002	1.5941927E-004	3.4323198E-004	3.7844773E-004	6.5086777E+001	4.314950540720004E-008
5.0122477E+004	1.1913370E+003	2.6070632E+003	2.8663674E+003	-6.5441254E+001	1.746848064303049E+001	-4.3953578E-003	5.2053778E-004	1.2179685E-003	1.0075705E-003	1.000000000000000E+000	12	1.3032207E-001	4.5465931E-005	5.550291188936575E-006	0.0000000E+000	-1.0012865E+002	1.4500096E-004	3.1731301E-004	3.4887364E-004	6.5441254E+001	2.718007246039635E-008
4.4666715E+004	1.2753983E+003	2.8393491E+003	3.1126426E+003	-6.5811012E+001	1.792847714488744E+001	-4.4700215E-003	4.5899072E-004	1.2549236E-003	1.0442305E-003	1.000000000000000E+000	12	1.3741709E-001	4.4148048E-005	5.583524689804790E-006	0.0000000E+000	-1.0008054E+002	1.3163983E-004	2.9306253E-004	3.2127043E-004	6.5811012E+001	3.323350086821463E-008
3.9814063E+004	1.3673979E+003	3.0965110E+003	3.3849900E+003	-6.6174072E+001	1.852349586648052E+001	-4.3816552E-003	5.0753524E-004	1.2909548E-003	1.0802929E-003	1.000000000000000E+000	12	1.2952667E-001	3.8265011E-005	5.673300408282658E-006	0.0000000E+000	-1.0012064E+002	1.1933839E-004	2.7024510E-004	2.9542184E-004	6.6174072E+001	8.977571847786865E-008
3.5480996E+004	1.4640109E+003	3.3815732E+003	3.6848833E+003	-6.6590393E+001	1.898347863499657E+001	-4.4207117E-003	5.2288471E-004	1.3264947E-003	1.1171092E-003	1.000000000000000E+000	12	1.3347881E-001	3.6223348E-005	5.725492863969824E-006	0.0000000E+000	-1.0010460E+002	1.0781936E-004	2.4904127E-004	2.7137902E-004	6.6590393E+001	5.219245568716517E-008
3.1621143E+004	1.5694288E+003	3.6908030E+003	4.0106274E+003	-6.6963493E+001	1.944349559015245E+001	-4.3975012E-003	5.3706055E-004	1.3637090E-003	1.1548852E-003	1.000000000000000E+000	12	1.3642174E-001	3.4015062E-005	5.801685134161643E-006	0.0000000E+000	-1.0016073E+002	9.7570162E-005	2.2945431E-004	2.4933755E-004	6.6963493E+001	7.619227019181942E-008
2.8188096E+004	1.6862429E+003	4.0374036E+003	4.3753906E+003	-6.7331886E+001	1.990247427861323E+001	-4.4172439E-003	5.1701657E-004	1.3984670E-003	1.1907563E-003	1.000000000000000E+000	12	1.3847938E-001	3.1649604E-005	5.846634083926398E-006	0.0000000E+000	-1.0009658E+002	8.8081870E-005	2.1089608E-004	2.2855103E-004	6.7331886E+001	4.494894976475448E-008
2.5116910E+004	1.8468140E+003	4.4297271E+003	4.7992920E+003	-6.7368073E+001	2.052849302833783E+001	-4.3065804E-003	3.9590566E-005	1.4304640E-003	1.2186432E-003	1.000000000000000E+000	13	1.3661440E-001	2.8465531E-005	5.852549451091869E-006	0.0000000E+000	-1.0016073E+002	8.0180522E-005	1.9231919E-004	2.0836407E-004	6.7368073E+001	5.915367165471028E-009
2.2389027E+004	1.9885990E+003	4.8508701E+003	5.2426582E+003	-6.7708977E+001	2.112447758999770E+001	-4.3178783E-003	3.9247636E-005	1.4654307E-003	1.2545889E-003	1.000000000000000E+000	13	1.3049275E-001	2.4890569E-005	5.830237896872291E-006	0.0000000E+000	-1.0012865E+002	7.2350937E-005	1.7648855E-004	1.9074294E-004	6.7708977E+001	-2.231155421957801E-008
1.9948783E+004	2.1454644E+003	5.3191719E+003	5.7355562E+003	-6.8033531E+001	2.172047329830821E+001	-4.3146908E-003	3.8992406E-005	1.4998910E-003	1.2900208E-003	1.000000000000000E+000	13	1.2930377E-001	2.2544242E-005	5.848999904709570E-006	0.0000000E+000	-1.0011262E+002	6.5218417E-005	1.6169364E-004	1.7435101E-004	6.8033531E+001	1.876200783727986E-008
1.7786895E+004	2.3215562E+003	5.8326758E+003	6.2777168E+003	-6.8296158E+001	2.218049510681885E+001	-4.3134782E-003	3.7923364E-005	1.5340948E-003	1.3242940E-003	1.000000000000000E+000	13	1.3443637E-001	2.1414851E-005	5.848982176415221E-006	0.0000000E+000	-1.0004044E+002	5.8908212E-005	1.4800091E-004	1.5929359E-004	6.8296158E+001	-1.772829434896507E-011
1.5847686E+004	2.5168027E+003	6.4009204E+003	6.8779414E+003	-6.8535553E+001	2.264049104865990E+001	-4.3140561E-003	3.9729915E-005	1.5689599E-003	1.3588758E-003	1.000000000000000E+000	13	1.3564017E-001	1.9721043E-005	5.871370406530079E-006	0.0000000E+000	-1.0017677E+002	5.3202522E-005	1.3530863E-004	1.4539235E-004	6.8535553E+001	2.238823011485752E-008
1.4121879E+004	2.7343472E+003	7.0261274E+003	7.5394375E+003	-6.8735580E+001	2.309949339044397E+001	-4.3210476E-003	3.8495098E-005	1.6040269E-003	1.3930470E-003	1.000000000000000E+000	13	1.3428140E-001	1.7810533E-005	5.890864971084789E-006	0.0000000E+000	-1.0016073E+002	4.8103400E-005	1.2360560E-004	1.3263589E-004	6.8735580E+001	1.949456455470976E-008
1.2590932E+004	2.9840635E+003	7.7153828E+003	8.2723496E+003	-6.8855125E+001	2.355949237229652E+001	-4.3153805E-003	3.8476410E-005	1.6383429E-003	1.4251546E-003	1.000000000000000E+000	13	1.3168198E-001	1.5918329E-005	5.891143036686774E-006	0.0000000E+000	-1.0012064E+002	4.3606400E-005	1.1274563E-004	1.2088464E-004	6.8855125E+001	2.780656019848020E-010
1.1217711E+004	3.2638589E+003	8.4759766E+003	9.0826729E+003	-6.8939713E+001	2.401948495415854E+001	-4.3078489E-003	3.9364764E-005	1.6738870E-003	1.4577341E-003	1.000000000000000E+000	13	1.2869290E-001	1.4169055E-005	5.889549425038139E-006	0.0000000E+000	-1.0011262E+002	3.9564351E-005	1.0274540E-004	1.1009975E-004	6.8939713E+001	-1.593611648634881E-009
1.0002229E+004	3.5755449E+003	9.2953047E+003	9.9592773E+003	-6.8960190E+001	2.447848116265959E+001	-4.3142806E-003	4.2791569E-005	1.7118262E-003	1.4911841E-003	1.000000000000000E+000	13	1.2584735E-001	1.2636193E-005	5.903102074861686E-006	0.0000000E+000	-1.0014469E+002	3.6048452E-005	9.3714749E-005	1.0040889E-004	6.8960190E+001	1.355264982354709E-008
8.9149297E+003	3.9346240E+003	1.0203852E+004	1.0936172E+004	-6.8913269E+001	2.496092003892409E+001	-4.3180655E-003	4.5194087E-005	1.7495973E-003	1.5231255E-003	1.000000000000000E+000	13	1.2320403E-001	1.1265736E-005	5.917294517118838E-006	0.0000000E+000	-1.0008855E+002	3.2898231E-005	8.5316591E-005	9.1439673E-005	6.8913269E+001	1.419244225715255E-008
7.9439976E+003	4.3537715E+003	1.1206753E+004	1.2022755E+004	-6.8769081E+001	2.548698059722665E+001	-4.3054256E-003	5.1118532E-005	1.7877270E-003	1.5532910E-003	1.000000000000000E+000	13	1.2090715E-001	1.0056527E-005	5.919359976353564E-006	0.0000000E+000	-1.0020083E+002	3.0120187E-005	7.7530356E-005	8.3175612E-005	6.8769081E+001	2.065459234725227E-009
7.0822334E+003	4.8331553E+003	1.2299042E+004	1.3214606E+004	-6.8546661E+001	2.606388547798269E+001	-4.2971671E-003	5.4444841E-005	1.8271686E-003	1.5827514E-003	1.000000000000000E+000	13	1.1898152E-001	9.0037884E-006	5.935576994583900E-006	0.0000000E+000	-1.0014469E+002	2.7677204E-005	7.0430833E-005	7.5673837E-005	6.8546661E+001	1.621701823033669E-008
6.3077344E+003	5.3980674E+003	1.3512217E+004	1.4550571E+004	-6.8223518E+001	2.669854073473834E+001	-4.2797173E-003	5.3431642E-005	1.8673260E-003	1.6103239E-003	1.000000000000000E+000	13	1.1736580E-001	8.0660611E-006	5.938010648918711E-006	0.0000000E+000	-1.0011262E+002	2.5496365E-005	6.3821419E-005	6.8725822E-005	6.8223518E+001	2.433654334810600E-009
5.6210552E+003	6.0529287E+003	1.4828179E+004	1.6016018E+004	-6.7794495E+001	2.739928884801338E+001	-4.2662947E-003	5.2783504E-005	1.9094769E-003	1.6367449E-003	1.000000000000000E+000	13	1.1603563E-001	7.2449743E-006	5.952222346882233E-006	0.0000000E+000	-1.0013667E+002	2.3596987E-005	5.7806774E-005	6.2437495E-005	6.7794495E+001	1.421169796352219E-008
5.0116035E+003	6.8163853E+003	1.6251514E+004	1.7623133E+004	-6.7245323E+001	2.838069076136890E+001	-4.2576441E-003	5.0488965E-005	1.9541127E-003	1.6617704E-003	1.000000000000000E+000	13	1.2683503E-001	7.1970767E-006	5.968539916524201E-006	0.0000000E+000	-1.0005648E+002	2.1947644E-005	5.2327210E-005	5.6743600E-005	6.7245323E+001	1.631756964196781E-008
4.4664292E+003	7.7001948E+003	1.7780102E+004	1.9375887E+004	-6.6583557E+001	2.914067607746256E+001	-4.2580357E-003	5.4008964E-005	2.0041279E-003	1.6876047E-003	1.000000000000000E+000	13	1.2587345E-001	6.4963965E-006	5.976605166456364E-006	0.0000000E+000	-1.0007252E+002	2.0510610E-005	4.7359928E-005	5.1610543E-005	6.6583557E+001	8.065249932163586E-009
3.9812742E+003	8.7228408E+003	1.9419764E+004	2.1288852E+004	-6.5811653E+001	2.990070792689949E+001	-4.2666113E-003	5.1259951E-005	2.0585153E-003	1.7129217E-003	1.000000000000000E+000	13	1.2508520E-001	5.8756200E-006	5.989653057530682E-006	0.0000000E+000	-1.0008054E+002	1.9246576E-005	4.2848882E-005	4.6972942E-005	6.5811653E+001	1.304789107431772E-008
