EC-Lab ASCII FILE
Nb header lines : 75                          

Potentio Electrochemical Impedance Spectroscopy

Run on channel : 3 (SN 20921)
User : 
CE vs. WE compliance from -10 V to 10 V
Electrode connection : standard
Ewe ctrl range : min = -10.00 V, max = 10.00 V
Safety Limits :
	Do not start on E overload
Acquisition started on : 01/24/2020 09:45:13
Technique started on : 01/24/2020 09:45:14
Saved on :
	File : DE_40_3_60.mpr
	Directory : P:\Chemistry\Data\VMP3\Kyler\DOE\DE_40\2ND 60C\
	Host : 10.0.4.99
Device : VMP3 (SN 0183)
Address : USB
EC-Lab for windows v11.33 (software)
Internet server v11.32 (firmware)
Command interpretor v11.33 (firmware)
Electrode material : 
Initial state : 
Electrolyte : 
Comments : 
Electrode surface area : 0.001 cm²
Characteristic mass : 0.001 g
Equivalent Weight : 0.000 g/eq.
Density : 0.000 g/cm3
Record Analogic IN 1
Cycle Definition : Charge/Discharge alternance
External device configuration :
   device type : Thermostat
   device name : Other
   Analog OUT : 
      mode : E/V
      unit : T/°C
      max : 400.000 at 5.000 V
      min : -100.000 at 0.000 V
      current : 0.000
   Analog IN 1 : 
      unit : T/°C
      max : 400.000 at 5.000 V
      min : -100.000 at 0.000 V
Mode                Single sine         
E (V)               0.0000              
vs.                 Eoc                 
tE (h:m:s)          0:00:0.0000         
record              0                   
dI                  1.000               
unit dI             mA                  
dt (s)              0.000               
fi                  1.000               
unit fi             MHz                 
ff                  1.000               
unit ff             Hz                  
Nd                  20                  
Points              per decade          
spacing             Logarithmic         
Va (mV)             128.0               
pw                  0.50                
Na                  3                   
corr                0                   
E range min (V)     -10.000             
E range max (V)     10.000              
I Range             Auto                
Bandwidth           5                   
nc cycles           0                   
goto Ns'            0                   
nr cycles           0                   
inc. cycle          1                   

freq/Hz	Re(Z)/Ohm	-Im(Z)/Ohm	|Z|/Ohm	Phase(Z)/deg	time/s	<Ewe>/V	<I>/mA	Cs/µF	Cp/µF	cycle number	I Range	|Ewe|/V	|I|/A	(Q-Qo)/mA.h	Analog OUT/V	Analog IN 1/V	Re(Y)/Ohm-1	Im(Y)/Ohm-1	|Y|/Ohm-1	Phase(Y)/deg	dq/mA.h	
1.0000186E+006	4.4602995E+000	-1.6544036E+000	4.7572389E+000	2.0350704E+001	1.846600087737897E+000	-6.1001517E-003	2.5527984E-001	-9.6199013E-002	-1.1634390E-002	1.000000000000000E+000	9	3.0591069E-005	6.4304249E-006	2.699962438051201E-005	0.0000000E+000	-1.0007990E+002	1.9708525E-001	-7.3102385E-002	2.1020597E-001	-2.0350704E+001	2.699962438051201E-005
8.9124669E+005	8.1200363E+001	2.6586645E+001	8.5442078E+001	-1.8129496E+001	3.021489103470230E+000	-5.7352171E-003	2.4831842E-003	6.7167422E-003	6.5034250E-004	1.000000000000000E+000	11	4.9517804E-004	5.7954821E-006	5.226468273043429E-005	0.0000000E+000	-1.0006387E+002	1.1122806E-002	3.6418322E-003	1.1703835E-002	1.8129496E+001	2.526505834992228E-005
7.9433269E+005	8.4775711E+001	2.5596819E+001	8.8555733E+001	-1.6800943E+001	3.617471185134491E+000	-5.3828070E-003	2.5025688E-003	7.8276554E-003	6.5398886E-004	1.000000000000000E+000	11	1.4434959E-003	1.6300422E-005	5.274120803536749E-005	0.0000000E+000	-1.0007188E+002	1.0810307E-002	3.2640186E-003	1.1292323E-002	1.6800943E+001	4.765253049331990E-007
7.0794981E+005	8.7778908E+001	2.4357256E+001	9.1095627E+001	-1.5508491E+001	4.212477773398859E+000	-5.0971028E-003	2.4194408E-003	9.2297364E-003	6.5985869E-004	1.000000000000000E+000	11	2.9774252E-003	3.2684613E-005	5.326492908821496E-005	0.0000000E+000	-1.0006387E+002	1.0577794E-002	2.9351702E-003	1.0977475E-002	1.5508491E+001	5.237210528474771E-007
6.3095681E+005	9.0483269E+001	2.2939228E+001	9.3345757E+001	-1.4225850E+001	4.808487481699558E+000	-4.8365975E-003	2.4736801E-003	1.0996177E-002	6.6406431E-004	1.000000000000000E+000	11	5.1913694E-003	5.5614411E-005	5.384836347320218E-005	0.0000000E+000	-1.0007188E+002	1.0384345E-002	2.6326291E-003	1.0712860E-002	1.4225850E+001	5.834343849872131E-007
5.6234225E+005	9.3141380E+001	2.1566946E+001	9.5605698E+001	-1.3037118E+001	5.405492843390675E+000	-4.6243090E-003	2.5016388E-003	1.3122929E-002	6.6779094E-004	1.000000000000000E+000	11	8.1477687E-003	8.5222629E-005	5.434457792035897E-005	0.0000000E+000	-1.0008792E+002	1.0190022E-002	2.3595062E-003	1.0459628E-002	1.3037118E+001	4.962144471567926E-007
5.0120619E+005	9.5361923E+001	2.0218525E+001	9.7481720E+001	-1.1970519E+001	6.002487938414561E+000	-4.4624368E-003	2.4738691E-003	1.5705591E-002	6.7562674E-004	1.000000000000000E+000	11	1.1853776E-002	1.2159999E-004	5.487595406110440E-005	0.0000000E+000	-1.0007188E+002	1.0035261E-002	2.1276642E-003	1.0258334E-002	1.1970519E+001	5.313761407454279E-007
4.4668572E+005	9.7272202E+001	1.8902508E+001	9.9091805E+001	-1.0996996E+001	6.597492420027265E+000	-4.3485207E-003	2.4630595E-003	1.8849447E-002	6.8590190E-004	1.000000000000000E+000	11	1.6357426E-002	1.6507345E-004	5.504310962159737E-005	0.0000000E+000	-1.0007990E+002	9.9063413E-003	1.9250587E-003	1.0091652E-002	1.0996996E+001	1.671555604929745E-007
3.9810347E+005	9.8922890E+001	1.7611605E+001	1.0047839E+002	-1.0094810E+001	7.193494021630613E+000	-4.3165185E-003	2.4994053E-003	2.2699969E-002	6.9739338E-004	1.000000000000000E+000	11	2.1635309E-002	2.1532302E-004	5.594505674803501E-005	0.0000000E+000	-1.0008792E+002	9.7983172E-003	1.7444304E-003	9.9523896E-003	1.0094810E+001	9.019471264376389E-007
3.5480997E+005	1.0025707E+002	1.6264807E+001	1.0156783E+002	-9.2148705E+000	7.789490983268479E+000	-4.2999866E-003	2.5432098E-003	2.7578803E-002	7.0723030E-004	1.000000000000000E+000	11	2.7746657E-002	2.7318351E-004	5.579190109925811E-005	0.0000000E+000	-1.0007188E+002	9.7185764E-003	1.5766545E-003	9.8456368E-003	9.2148705E+000	-1.531556487768975E-007
3.1622997E+005	1.0134195E+002	1.4992628E+001	1.0244496E+002	-8.4153538E+000	8.385478798270924E+000	-4.3178229E-003	2.3337123E-003	3.3569071E-002	7.1897480E-004	1.000000000000000E+000	11	3.4680177E-002	3.3852496E-004	5.691893125287627E-005	0.0000000E+000	-1.0006387E+002	9.6562402E-003	1.4285536E-003	9.7613391E-003	8.4153538E+000	1.127030153618153E-006
2.8183453E+005	1.0223560E+002	1.3791509E+001	1.0316164E+002	-7.6827803E+000	8.981475946580758E+000	-4.3107960E-003	2.5042584E-003	4.0946253E-002	7.3181489E-004	1.000000000000000E+000	11	4.2536285E-002	4.1232657E-004	5.794888952974361E-005	0.0000000E+000	-1.0005585E+002	9.6065113E-003	1.2959115E-003	9.6935257E-003	7.6827803E+000	1.029958276867342E-006
2.5118764E+005	1.0292458E+002	1.2647977E+001	1.0369880E+002	-7.0057182E+000	9.576480348157929E+000	-4.3118400E-003	2.4735045E-003	5.0095741E-002	7.4523885E-004	1.000000000000000E+000	11	5.1307574E-002	4.9477501E-004	5.808993825658278E-005	0.0000000E+000	-1.0009594E+002	9.5713167E-003	1.1761795E-003	9.6433135E-003	7.0057182E+000	1.410487268391707E-007
2.2387173E+005	1.0349216E+002	1.1623689E+001	1.0414288E+002	-6.4083009E+000	1.017148560311762E+001	-4.3150266E-003	2.2168518E-003	6.1161321E-002	7.6191354E-004	1.000000000000000E+000	11	6.1073761E-002	5.8644207E-004	5.788033505807632E-005	0.0000000E+000	-1.0009594E+002	9.5421961E-003	1.0717286E-003	9.6021928E-003	6.4083009E+000	-2.096031985064542E-007
1.9954350E+005	1.0392989E+002	1.0709322E+001	1.0448020E+002	-5.8832054E+000	1.076748912475887E+001	-4.2684679E-003	2.6146085E-003	7.4476726E-002	7.8248593E-004	1.000000000000000E+000	11	7.1724296E-002	6.8648695E-004	5.807094834011716E-005	0.0000000E+000	-1.0007990E+002	9.5207784E-003	9.8105625E-004	9.5711909E-003	5.8832054E+000	1.906132820408363E-007
1.7783180E+005	1.0426774E+002	9.8740664E+000	1.0473423E+002	-5.4097290E+000	1.136448176644626E+001	-4.2884853E-003	2.2970061E-003	9.0638913E-002	8.0561859E-004	1.000000000000000E+000	11	8.3226606E-002	7.9464569E-004	5.944215393347784E-005	0.0000000E+000	-1.0006387E+002	9.5054498E-003	9.0015808E-004	9.5479768E-003	5.4097290E+000	1.371205593360679E-006
1.5848613E+005	1.0453970E+002	9.1292200E+000	1.0493755E+002	-4.9908524E+000	1.196048718140810E+001	-4.2449650E-003	2.6876766E-003	1.1000063E-001	8.3253154E-004	1.000000000000000E+000	11	9.5578276E-002	9.1081095E-004	5.871818404200450E-005	0.0000000E+000	-1.0007990E+002	9.4933473E-003	8.2903297E-004	9.5294770E-003	4.9908524E+000	-7.239698914733410E-007
1.4125594E+005	1.0474824E+002	8.4937325E+000	1.0509204E+002	-4.6358070E+000	1.255648944972199E+001	-4.2584776E-003	2.5713718E-003	1.3265231E-001	8.6650753E-004	1.000000000000000E+000	11	1.0872743E-001	1.0345924E-003	5.909960308733126E-005	0.0000000E+000	-1.0008792E+002	9.4843386E-003	7.6905772E-004	9.5154680E-003	4.6358070E+000	3.814190453267605E-007
1.2590930E+005	1.0492696E+002	7.9491134E+000	1.0522764E+002	-4.3323689E+000	1.301647296486772E+001	-4.2414977E-003	2.5324177E-003	1.5901704E-001	9.0744725E-004	1.000000000000000E+000	11	1.2284272E-001	1.1673998E-003	5.871084564655232E-005	0.0000000E+000	-1.0007990E+002	9.4760526E-003	7.1789190E-004	9.5032072E-003	4.3323689E+000	-3.887574407789385E-007
1.1220494E+005	1.0507076E+002	7.4958906E+000	1.0533780E+002	-4.0806451E+000	1.347547917332849E+001	-4.1847434E-003	3.0703433E-003	1.8922779E-001	9.5821486E-004	1.000000000000000E+000	11	1.3799895E-001	1.3100611E-003	5.975674078300532E-005	0.0000000E+000	-1.0009594E+002	9.4692018E-003	6.7554566E-004	9.4932681E-003	4.0806451E+000	1.045895136452999E-006
1.0000371E+005	1.0517600E+002	7.1260958E+000	1.0541714E+002	-3.8760948E+000	1.407048789496184E+001	-4.1557993E-003	2.6580459E-003	2.2333272E-001	1.0205475E-003	1.000000000000000E+000	11	1.3029176E-001	1.2359638E-003	5.898843463362856E-005	0.0000000E+000	-1.0006387E+002	9.4644250E-003	6.4125273E-004	9.4861239E-003	3.8760948E+000	-7.683061493767612E-007
8.9129305E+004	1.0525137E+002	6.8363695E+000	1.0547316E+002	-3.7163000E+000	1.466548946985858E+001	-4.1356324E-003	2.4671825E-003	2.6120055E-001	1.0973400E-003	1.000000000000000E+000	11	1.2978694E-001	1.2305210E-003	6.072920533999220E-005	0.0000000E+000	-1.0009594E+002	9.4611486E-003	6.1452796E-004	9.4810855E-003	3.7163000E+000	1.740770706363645E-006
7.9433273E+004	1.0530389E+002	6.6220574E+000	1.0551189E+002	-3.5983191E+000	1.526148725816165E+001	-4.0952810E-003	2.5374510E-003	3.0256921E-001	1.1918121E-003	1.000000000000000E+000	11	1.2960045E-001	1.2283018E-003	5.846733812545143E-005	0.0000000E+000	-1.0004784E+002	9.4589200E-003	5.9482618E-004	9.4776042E-003	3.5983191E+000	-2.261867214540770E-006
7.0794977E+004	1.0534386E+002	6.4927478E+000	1.0554375E+002	-3.5268981E+000	1.585849059323664E+001	-4.0564579E-003	2.6476043E-003	3.4624949E-001	1.3103314E-003	1.000000000000000E+000	11	1.2951392E-001	1.2271112E-003	5.803710489340826E-005	0.0000000E+000	-1.0006387E+002	9.4567984E-003	5.8285892E-004	9.4747432E-003	3.5268981E+000	-4.302332320431699E-007
6.3093828E+004	1.0537576E+002	6.4350562E+000	1.0557207E+002	-3.4945822E+000	1.645447118152515E+001	-4.0577254E-003	2.5449062E-003	3.9199534E-001	1.4564231E-003	1.000000000000000E+000	11	1.2944347E-001	1.2261147E-003	5.873130629317368E-005	0.0000000E+000	-1.0009594E+002	9.4545893E-003	5.7737011E-004	9.4722025E-003	3.4945822E+000	6.942013997654126E-007
5.6237012E+004	1.0539346E+002	6.4560685E+000	1.0559101E+002	-3.5053773E+000	1.705048947650357E+001	-4.0484625E-003	2.4209577E-003	4.3835881E-001	1.6387479E-003	1.000000000000000E+000	11	1.2929906E-001	1.2245271E-003	5.877495334913813E-005	0.0000000E+000	-1.0011197E+002	9.4527844E-003	5.7904754E-004	9.4705028E-003	3.5053773E+000	4.364705596445883E-008
5.0122477E+004	1.0540340E+002	6.5532875E+000	1.0560692E+002	-3.5576940E+000	1.764648329149350E+001	-4.0284260E-003	2.4901074E-003	4.8453858E-001	1.8657871E-003	1.000000000000000E+000	11	1.2934841E-001	1.2248100E-003	6.009524162889971E-005	0.0000000E+000	-1.0008792E+002	9.4508287E-003	5.8759010E-004	9.4690770E-003	3.5576940E+000	1.320288279761574E-006
4.4666715E+004	1.0542389E+002	6.7322040E+000	1.0563863E+002	-3.6538570E+000	1.810547747326200E+001	-4.0259282E-003	2.5055876E-003	5.2927190E-001	2.1495516E-003	1.000000000000000E+000	11	1.4021805E-001	1.3273369E-003	6.141887498730123E-005	0.0000000E+000	-1.0003982E+002	9.4469925E-003	6.0327008E-004	9.4662346E-003	3.6538570E+000	1.323633358401519E-006
3.9814063E+004	1.0542966E+002	6.9824891E+000	1.0566062E+002	-3.7891026E+000	1.870148443491780E+001	-4.0067686E-003	2.4450028E-003	5.7249725E-001	2.5001587E-003	1.000000000000000E+000	11	1.3027391E-001	1.2329466E-003	6.261733004549064E-005	0.0000000E+000	-1.0014404E+002	9.4435755E-003	6.2543759E-004	9.4642639E-003	3.7891026E+000	1.198455058189411E-006
3.5480996E+004	1.0544959E+002	7.3312778E+000	1.0570413E+002	-3.9770327E+000	1.916149653677712E+001	-4.0004873E-003	2.5369006E-003	6.1184955E-001	2.9432022E-003	1.000000000000000E+000	11	1.3956907E-001	1.3203748E-003	6.285094475563811E-005	0.0000000E+000	-1.0010395E+002	9.4375871E-003	6.5613887E-004	9.4603682E-003	3.9770327E+000	2.336147101474718E-007
3.1621143E+004	1.0545380E+002	7.7630577E+000	1.0573915E+002	-4.2102757E+000	1.975747792507173E+001	-3.9865836E-003	2.4084705E-003	6.4835036E-001	3.4946506E-003	1.000000000000000E+000	11	1.3002905E-001	1.2297153E-003	6.462022257253517E-005	0.0000000E+000	-1.0011197E+002	9.4317133E-003	6.9432240E-004	9.4572352E-003	4.2102757E+000	1.769277816897054E-006
2.8188096E+004	1.0548185E+002	8.2849379E+000	1.0580672E+002	-4.4910040E+000	2.021647842685343E+001	-3.9817747E-003	2.4627175E-003	6.8149883E-001	4.1784686E-003	1.000000000000000E+000	11	1.3757563E-001	1.3002541E-003	6.432940458036845E-005	0.0000000E+000	-1.0009594E+002	9.4221774E-003	7.4005290E-004	9.4511956E-003	4.4910040E+000	-2.908179921667171E-007
2.5116910E+004	1.0549177E+002	8.9110355E+000	1.0586746E+002	-4.8283916E+000	2.081248280181899E+001	-3.9692316E-003	2.4431380E-003	7.1109188E-001	5.0379876E-003	1.000000000000000E+000	11	1.2968987E-001	1.2250211E-003	6.491918277419184E-005	0.0000000E+000	-1.0011197E+002	9.4122523E-003	7.9506601E-004	9.4457725E-003	4.8283916E+000	5.897781938233904E-007
2.2389027E+004	1.0552847E+002	9.6425838E+000	1.0596810E+002	-5.2208600E+000	2.127147461028653E+001	-3.9756615E-003	2.4392286E-003	7.3721045E-001	6.1041899E-003	1.000000000000000E+000	11	1.3548906E-001	1.2785834E-003	6.575484078389815E-005	0.0000000E+000	-1.0011197E+002	9.3976520E-003	8.5870322E-004	9.4368020E-003	5.2208600E+000	8.356580097063077E-007
1.9948783E+004	1.0556892E+002	1.0490128E+001	1.0608884E+002	-5.6747141E+000	2.173149415219086E+001	-3.9647389E-003	2.5177035E-003	7.6054162E-001	7.4360985E-003	1.000000000000000E+000	11	1.4073998E-001	1.3266238E-003	6.705963376235619E-005	0.0000000E+000	-1.0009594E+002	9.3798675E-003	9.3205465E-004	9.4260620E-003	5.6747141E+000	1.304792978458044E-006
1.7786895E+004	1.0560880E+002	1.1464481E+001	1.0622924E+002	-6.1955466E+000	2.232749644716387E+001	-3.9519542E-003	2.5687632E-003	7.8048688E-001	9.0904683E-003	1.000000000000000E+000	11	1.2978469E-001	1.2217417E-003	6.520795655291981E-005	0.0000000E+000	-1.0007990E+002	9.3586221E-003	1.0159357E-003	9.4136037E-003	6.1955466E+000	-1.851677209436376E-006
1.5847686E+004	1.0567233E+002	1.2576437E+001	1.0641808E+002	-6.7870483E+000	2.278648028228781E+001	-3.9578248E-003	2.4966334E-003	7.9853994E-001	1.1152727E-002	1.000000000000000E+000	11	1.3338289E-001	1.2533856E-003	6.674200636516495E-005	0.0000000E+000	-1.0006387E+002	9.3310485E-003	1.1105209E-003	9.3968995E-003	6.7870483E+000	1.534049812245138E-006
1.4121879E+004	1.0574834E+002	1.3821283E+001	1.0664773E+002	-7.4463363E+000	2.324649470412987E+001	-3.9608623E-003	2.4834033E-003	8.1541610E-001	1.3695340E-002	1.000000000000000E+000	11	1.3644862E-001	1.2794330E-003	6.619551212995793E-005	0.0000000E+000	-1.0007188E+002	9.2975879E-003	1.2151926E-003	9.3766646E-003	7.4463363E+000	-5.464942352070184E-007
1.2590932E+004	1.0585602E+002	1.5263150E+001	1.0695074E+002	-8.2048063E+000	2.370647765931790E+001	-3.9601913E-003	2.4841514E-003	8.2816732E-001	1.6867040E-002	1.000000000000000E+000	11	1.3904062E-001	1.3000435E-003	6.685776167891365E-005	0.0000000E+000	-1.0010395E+002	9.2543941E-003	1.3343710E-003	9.3500996E-003	8.2048063E+000	6.622495489557199E-007
1.1217711E+004	1.0595899E+002	1.6876905E+001	1.0729463E+002	-9.0499210E+000	2.430247814094764E+001	-3.9516184E-003	2.4034390E-003	8.4066522E-001	2.0799492E-002	1.000000000000000E+000	11	1.2926996E-001	1.2048129E-003	7.027840043635459E-005	0.0000000E+000	-1.0008792E+002	9.2041101E-003	1.4660096E-003	9.3201306E-003	9.0499210E+000	3.420638757440934E-006
1.0002229E+004	1.0610857E+002	1.8677382E+001	1.0773984E+002	-9.9830198E+000	2.476248509614379E+001	-3.9521591E-003	2.4194687E-003	8.5193664E-001	2.5602752E-002	1.000000000000000E+000	11	1.3087885E-001	1.2147675E-003	7.165808641373679E-005	0.0000000E+000	-1.0007188E+002	9.1410866E-003	1.6090270E-003	9.2816176E-003	9.9830198E+000	1.379685977382199E-006
8.9149297E+003	1.0628625E+002	2.0707525E+001	1.0828467E+002	-1.1024708E+001	2.524490543905995E+001	-3.9338376E-003	2.5588863E-003	8.6213243E-001	3.1528004E-002	1.000000000000000E+000	11	1.3220146E-001	1.2208696E-003	7.168196379670998E-005	0.0000000E+000	-1.0005585E+002	9.0644853E-003	1.7660144E-003	9.2349174E-003	1.1024708E+001	2.387738297319618E-008
7.9439976E+003	1.0649317E+002	2.2977095E+001	1.0894376E+002	-1.2175561E+001	2.577099314404768E+001	-3.9209398E-003	2.5881478E-003	8.7193859E-001	3.8785685E-002	1.000000000000000E+000	11	1.3325064E-001	1.2231141E-003	7.228296406585569E-005	0.0000000E+000	-1.0005585E+002	8.9725740E-003	1.9359335E-003	9.1790482E-003	1.2175561E+001	6.010002691457115E-007
7.0822334E+003	1.0673084E+002	2.5504971E+001	1.0973594E+002	-1.3439666E+001	2.634785877144895E+001	-3.9200266E-003	2.6384727E-003	8.8109976E-001	4.7596712E-002	1.000000000000000E+000	11	1.3407695E-001	1.2218144E-003	7.365977075695062E-005	0.0000000E+000	-1.0009594E+002	8.8632330E-003	2.1180052E-003	9.1127846E-003	1.3439666E+001	1.376806691094927E-006
6.3077344E+003	1.0701537E+002	2.8352274E+001	1.1070746E+002	-1.4838825E+001	2.698255392155261E+001	-3.9022644E-003	2.5244041E-003	8.8993609E-001	5.8368813E-002	1.000000000000000E+000	11	1.3472638E-001	1.2169584E-003	7.295831245367986E-005	0.0000000E+000	-1.0004784E+002	8.7315710E-003	2.3133114E-003	9.0328148E-003	1.4838825E+001	-7.014583032707600E-007
5.6210552E+003	1.0734436E+002	3.1505260E+001	1.1187222E+002	-1.6356812E+001	2.768327158151078E+001	-3.8973999E-003	2.4908534E-003	8.9870918E-001	7.1275599E-002	1.000000000000000E+000	11	1.3521238E-001	1.2086324E-003	7.358529344312046E-005	0.0000000E+000	-1.0008792E+002	8.5769864E-003	2.5173209E-003	8.9387698E-003	1.6356812E+001	6.269809894406033E-007
5.0116035E+003	1.0771672E+002	3.5009453E+001	1.1326321E+002	-1.8004892E+001	2.844367959102237E+001	-3.9082472E-003	2.3877798E-003	9.0710610E-001	8.6666457E-002	1.000000000000000E+000	11	1.3555850E-001	1.1968450E-003	7.318169409332565E-005	0.0000000E+000	-1.0000775E+002	8.3966386E-003	2.7290259E-003	8.8289930E-003	1.8004892E+001	-4.035993497948133E-007
4.4664292E+003	1.0818180E+002	3.8902756E+001	1.1496402E+002	-1.9778858E+001	2.920370602712501E+001	-3.9086756E-003	2.5141523E-003	9.1596591E-001	1.0488568E-001	1.000000000000000E+000	11	1.3581574E-001	1.1813761E-003	7.338902345926787E-005	0.0000000E+000	-1.0008792E+002	8.1852200E-003	2.9434490E-003	8.6983740E-003	1.9778858E+001	2.073293659422143E-007
3.9812742E+003	1.0871283E+002	4.3226784E+001	1.1699160E+002	-2.1683935E+001	2.996369811655313E+001	-3.8997855E-003	2.5693225E-003	9.2479426E-001	1.2625296E-001	1.000000000000000E+000	11	1.3597217E-001	1.1622388E-003	7.304049988159992E-005	0.0000000E+000	-1.0007188E+002	7.9427594E-003	3.1582285E-003	8.5476218E-003	2.1683935E+001	-3.485235776679469E-007
