EC-Lab ASCII FILE
Nb header lines : 75                          

Potentio Electrochemical Impedance Spectroscopy

Run on channel : 3 (SN 20921)
User : 
CE vs. WE compliance from -10 V to 10 V
Electrode connection : standard
Ewe ctrl range : min = -10.00 V, max = 10.00 V
Safety Limits :
	Do not start on E overload
Acquisition started on : 01/24/2020 09:53:15
Technique started on : 01/24/2020 09:53:16
Saved on :
	File : DE_40_11_60.mpr
	Directory : P:\Chemistry\Data\VMP3\Kyler\DOE\DE_40\2ND 60C\
	Host : 10.0.4.99
Device : VMP3 (SN 0183)
Address : USB
EC-Lab for windows v11.33 (software)
Internet server v11.32 (firmware)
Command interpretor v11.33 (firmware)
Electrode material : 
Initial state : 
Electrolyte : 
Comments : 
Electrode surface area : 0.001 cm²
Characteristic mass : 0.001 g
Equivalent Weight : 0.000 g/eq.
Density : 0.000 g/cm3
Record Analogic IN 1
Cycle Definition : Charge/Discharge alternance
External device configuration :
   device type : Thermostat
   device name : Other
   Analog OUT : 
      mode : E/V
      unit : T/°C
      max : 400.000 at 5.000 V
      min : -100.000 at 0.000 V
      current : 0.000
   Analog IN 1 : 
      unit : T/°C
      max : 400.000 at 5.000 V
      min : -100.000 at 0.000 V
Mode                Single sine         
E (V)               0.0000              
vs.                 Eoc                 
tE (h:m:s)          0:00:0.0000         
record              0                   
dI                  1.000               
unit dI             mA                  
dt (s)              0.000               
fi                  1.000               
unit fi             MHz                 
ff                  1.000               
unit ff             Hz                  
Nd                  20                  
Points              per decade          
spacing             Logarithmic         
Va (mV)             128.0               
pw                  0.50                
Na                  3                   
corr                0                   
E range min (V)     -10.000             
E range max (V)     10.000              
I Range             Auto                
Bandwidth           5                   
nc cycles           0                   
goto Ns'            0                   
nr cycles           0                   
inc. cycle          1                   

freq/Hz	Re(Z)/Ohm	-Im(Z)/Ohm	|Z|/Ohm	Phase(Z)/deg	time/s	<Ewe>/V	<I>/mA	Cs/µF	Cp/µF	cycle number	I Range	|Ewe|/V	|I|/A	(Q-Qo)/mA.h	Analog OUT/V	Analog IN 1/V	Re(Y)/Ohm-1	Im(Y)/Ohm-1	|Y|/Ohm-1	Phase(Y)/deg	dq/mA.h	
1.0000186E+006	2.0592369E+001	-6.0354123E+000	2.1458609E+001	1.6335320E+001	1.846600087737897E+000	2.0717893E-002	2.4591875E-001	-2.6369696E-002	-2.0860077E-003	1.000000000000000E+000	9	3.1516887E-005	1.4687292E-006	2.591272316793200E-005	0.0000000E+000	-1.0007188E+002	4.4720147E-002	-1.3107016E-002	4.6601344E-002	-1.6335320E+001	2.591272316793200E-005
8.9124669E+005	7.7427147E+001	3.6376801E+001	8.5546684E+001	-2.5165062E+001	3.022476863552583E+000	2.1057965E-002	2.1387399E-003	4.9090530E-003	8.8764710E-004	1.000000000000000E+000	11	4.9202837E-004	5.7515772E-006	5.039813636257047E-005	0.0000000E+000	-1.0011999E+002	1.0580030E-002	4.9707065E-003	1.1689524E-002	2.5165062E+001	2.448541319463847E-005
7.9433269E+005	8.1367874E+001	3.4148045E+001	8.8242958E+001	-2.2766563E+001	3.618485371844145E+000	2.1408344E-002	2.2528095E-003	5.8674831E-003	8.7866519E-004	1.000000000000000E+000	11	1.4495970E-003	1.6427339E-005	5.082324896073583E-005	0.0000000E+000	-1.0007188E+002	1.0449436E-002	4.3853647E-003	1.1332349E-002	2.2766563E+001	4.251125981653668E-007
7.0794981E+005	8.5704140E+001	3.2362358E+001	9.1610710E+001	-2.0686813E+001	4.213471933413530E+000	2.1714512E-002	2.2936293E-003	6.9466829E-003	8.6689263E-004	1.000000000000000E+000	11	3.0107538E-003	3.2864649E-005	5.128812957401614E-005	0.0000000E+000	-1.0009594E+002	1.0211965E-002	3.8560943E-003	1.0915754E-002	2.0686813E+001	4.648806132803021E-007
6.3095681E+005	8.9426460E+001	3.0776352E+001	9.4574181E+001	-1.8991037E+001	4.808477721671807E+000	2.1964766E-002	2.2000631E-003	8.1960270E-003	8.6794555E-004	1.000000000000000E+000	11	5.2742106E-003	5.5767978E-005	5.163897929352283E-005	0.0000000E+000	-1.0007990E+002	9.9981781E-003	3.4408993E-003	1.0573710E-002	1.8991037E+001	3.508497195066931E-007
5.6234225E+005	9.2769943E+001	2.9218317E+001	9.7262390E+001	-1.7482059E+001	5.404470123321516E+000	2.2188984E-002	2.3761999E-003	9.6864412E-003	8.7414758E-004	1.000000000000000E+000	11	8.2975663E-003	8.5311149E-005	5.191842565368764E-005	0.0000000E+000	-1.0006387E+002	9.8065771E-003	3.0886263E-003	1.0281467E-002	1.7482059E+001	2.794463601648079E-007
5.0120619E+005	9.5770508E+001	2.7632648E+001	9.9677246E+001	-1.6094429E+001	6.000478364963783E+000	2.2337044E-002	2.1853410E-003	1.1491619E-002	8.8314939E-004	1.000000000000000E+000	11	1.2091026E-002	1.2130177E-004	5.214499536674288E-005	0.0000000E+000	-1.0006387E+002	9.6391719E-003	2.7811888E-003	1.0032380E-002	1.6094429E+001	2.265697130552429E-007
4.4668572E+005	9.8393066E+001	2.5959524E+001	1.0175997E+002	-1.4779835E+001	6.596481913264142E+000	2.2465369E-002	2.2505776E-003	1.3725284E-002	8.9322490E-004	1.000000000000000E+000	11	1.6714718E-002	1.6425631E-004	5.254566386450945E-005	0.0000000E+000	-1.0010395E+002	9.5019015E-003	2.5069334E-003	9.8270467E-003	1.4779835E+001	4.006684977665722E-007
3.9810347E+005	1.0061243E+002	2.4355606E+001	1.0351839E+002	-1.3608015E+001	7.191493834863650E+000	2.2518525E-002	2.3614783E-003	1.6414410E-002	9.0863224E-004	1.000000000000000E+000	11	2.2125451E-002	2.1373450E-004	5.296516092325692E-005	0.0000000E+000	-1.0010395E+002	9.3889413E-003	2.2728143E-003	9.6601192E-003	1.3608015E+001	4.194970587474643E-007
3.5480997E+005	1.0250109E+002	2.2665716E+001	1.0497718E+002	-1.2468972E+001	7.787494983203942E+000	2.2510622E-002	2.3249497E-003	1.9790415E-002	9.2257984E-004	1.000000000000000E+000	11	2.8418422E-002	2.7071047E-004	5.393500412943023E-005	0.0000000E+000	-1.0010395E+002	9.3011940E-003	2.0567412E-003	9.5258802E-003	1.2468972E+001	9.698432061733112E-007
3.1622997E+005	1.0407695E+002	2.1001017E+001	1.0617464E+002	-1.1408158E+001	8.383470851491438E+000	2.2519568E-002	2.3051947E-003	2.3964964E-002	9.3759625E-004	1.000000000000000E+000	11	3.5530992E-002	3.3464670E-004	5.511330145985186E-005	0.0000000E+000	-1.0005585E+002	9.2323655E-003	1.8629396E-003	9.4184456E-003	1.1408158E+001	1.178297330421631E-006
2.8183453E+005	1.0540146E+002	1.9405581E+001	1.0717297E+002	-1.0431967E+001	8.979487199831055E+000	2.2503056E-002	2.2272866E-003	2.9100424E-002	9.5407397E-004	1.000000000000000E+000	11	4.3612491E-002	4.0693558E-004	5.456859402081722E-005	0.0000000E+000	-1.0006387E+002	9.1764806E-003	1.6894921E-003	9.3307113E-003	1.0431967E+001	-5.447074390346399E-007
2.5118764E+005	1.0643054E+002	1.7932131E+001	1.0793063E+002	-9.5637541E+000	9.575484454777325E+000	2.2492971E-002	2.1359574E-003	3.5333768E-002	9.7535859E-004	1.000000000000000E+000	11	5.2596126E-002	4.8731416E-004	5.535548794106903E-005	0.0000000E+000	-1.0010395E+002	9.1364365E-003	1.5393681E-003	9.2652105E-003	9.5637541E+000	7.868939202518153E-007
2.2387173E+005	1.0729610E+002	1.6570326E+001	1.0856808E+002	-8.7791452E+000	1.017048018969945E+001	2.2553397E-002	2.4867398E-003	4.2903211E-002	9.9941890E-004	1.000000000000000E+000	11	6.2631547E-002	5.7688728E-004	5.612403869578136E-005	0.0000000E+000	-1.0011999E+002	9.1028959E-003	1.4058102E-003	9.2108101E-003	8.7791452E+000	7.685507547123272E-007
1.9954350E+005	1.0798139E+002	1.5338434E+001	1.0906534E+002	-8.0846090E+000	1.076747755138786E+001	2.2532057E-002	2.2679267E-003	5.1999781E-002	1.0284664E-003	1.000000000000000E+000	11	7.3548466E-002	6.7435234E-004	5.673596606168070E-005	0.0000000E+000	-1.0003180E+002	9.0776915E-003	1.2894591E-003	9.1688158E-003	8.0846090E+000	6.119273658993415E-007
1.7783180E+005	1.0853366E+002	1.4251560E+001	1.0946535E+002	-7.4807124E+000	1.136247771300259E+001	2.2532765E-002	2.2116413E-003	6.2798359E-002	1.0644366E-003	1.000000000000000E+000	11	8.5359432E-002	7.7978498E-004	5.624788805292660E-005	0.0000000E+000	-1.0011197E+002	9.0575581E-003	1.1893484E-003	9.1353115E-003	7.4807124E+000	-4.880780087540985E-007
1.5848613E+005	1.0897131E+002	1.3310769E+001	1.0978125E+002	-6.9641399E+000	1.195848435463267E+001	2.2564879E-002	2.4282245E-003	7.5444177E-002	1.1091128E-003	1.000000000000000E+000	11	9.8026566E-002	8.9292630E-004	5.665640791408562E-005	0.0000000E+000	-1.0009594E+002	9.0418197E-003	1.1044519E-003	9.1090240E-003	6.9641399E+000	4.085198611590172E-007
1.4125594E+005	1.0932336E+002	1.2503942E+001	1.1003611E+002	-6.5248938E+000	1.255448875625734E+001	2.2544023E-002	2.1829384E-003	9.0108655E-002	1.1635630E-003	1.000000000000000E+000	11	1.1153687E-001	1.0136388E-003	5.737183676753193E-005	0.0000000E+000	-1.0007990E+002	9.0290597E-003	1.0327054E-003	9.0879258E-003	6.5248938E+000	7.154288534463079E-007
1.2590930E+005	1.0962362E+002	1.1837284E+001	1.1026087E+002	-6.1629848E+000	1.301447088478017E+001	2.2568850E-002	2.3883395E-003	1.0678501E-001	1.2307549E-003	1.000000000000000E+000	11	1.2602088E-001	1.1429338E-003	5.812261695988612E-005	0.0000000E+000	-1.0011999E+002	9.0169841E-003	9.7366434E-004	9.0694008E-003	6.1629848E+000	7.507801923541943E-007
1.1220494E+005	1.0986121E+002	1.1306244E+001	1.1044147E+002	-5.8758450E+000	1.361048211311572E+001	2.2683736E-002	2.8550557E-003	1.2545553E-001	1.3148075E-003	1.000000000000000E+000	11	1.2894972E-001	1.1675842E-003	5.788926883173796E-005	0.0000000E+000	-1.0007990E+002	9.0069985E-003	9.2694513E-004	9.0545705E-003	5.8758450E+000	-2.333481281481647E-007
1.0000371E+005	1.1006723E+002	1.0898378E+001	1.1060547E+002	-5.6547470E+000	1.420648838140187E+001	2.2633580E-002	2.1620656E-003	1.4603001E-001	1.4177925E-003	1.000000000000000E+000	11	1.2965921E-001	1.1722676E-003	5.633856901146323E-005	0.0000000E+000	-1.0007990E+002	8.9971479E-003	8.9085841E-004	9.0411445E-003	5.6547470E+000	-1.550699820274732E-006
8.9129305E+004	1.1021680E+002	1.0612482E+001	1.1072654E+002	-5.4999032E+000	1.480149376965710E+001	2.2676690E-002	2.2025111E-003	1.6826068E-001	1.5456571E-003	1.000000000000000E+000	11	1.2965623E-001	1.1709589E-003	5.458413946379248E-005	0.0000000E+000	-1.0010395E+002	8.9896815E-003	8.6559256E-004	9.0312585E-003	5.4999032E+000	-1.754429547670752E-006
7.9433273E+004	1.1036601E+002	1.0458670E+001	1.1086046E+002	-5.4133830E+000	1.539648126458633E+001	2.2683306E-002	1.9872340E-003	1.9157605E-001	1.7050644E-003	1.000000000000000E+000	11	1.2960389E-001	1.1690723E-003	5.588108584095931E-005	0.0000000E+000	-1.0005585E+002	8.9801177E-003	8.5098739E-004	9.0203490E-003	5.4133830E+000	1.296946377166834E-006
7.0794977E+004	1.1046665E+002	1.0423509E+001	1.1095734E+002	-5.3904047E+000	1.599248478622758E+001	2.2748819E-002	2.3730572E-003	2.1567696E-001	1.9033540E-003	1.000000000000000E+000	11	1.2946974E-001	1.1668425E-003	5.618197083761657E-005	0.0000000E+000	-1.0006387E+002	8.9726169E-003	8.4664597E-004	9.0124728E-003	5.3904047E+000	3.008849966572571E-007
6.3093828E+004	1.1056937E+002	1.0514268E+001	1.1106815E+002	-5.4320397E+000	1.658949145462248E+001	2.2762798E-002	2.2593599E-003	2.3991325E-001	2.1499740E-003	1.000000000000000E+000	11	1.2944868E-001	1.1654887E-003	5.750196825869433E-005	0.0000000E+000	-1.0011197E+002	8.9630475E-003	8.5231464E-004	9.0034809E-003	5.4320397E+000	1.319997421077763E-006
5.6237012E+004	1.1065790E+002	1.0726903E+001	1.1117661E+002	-5.5368114E+000	1.718547145623597E+001	2.2783821E-002	2.3100574E-003	2.6382962E-001	2.4560965E-003	1.000000000000000E+000	11	1.2951741E-001	1.1649700E-003	5.626638881249689E-005	0.0000000E+000	-1.0007990E+002	8.9527331E-003	8.6785579E-004	8.9946985E-003	5.5368114E+000	-1.235579446197436E-006
5.0122477E+004	1.1073689E+002	1.1068087E+001	1.1128864E+002	-5.7077236E+000	1.778048927118653E+001	2.2789003E-002	2.2636461E-003	2.8688976E-001	2.8376479E-003	1.000000000000000E+000	11	1.2917641E-001	1.1607332E-003	5.584214066939118E-005	0.0000000E+000	-1.0009594E+002	8.9410944E-003	8.9365715E-004	8.9856433E-003	5.7077236E+000	-4.242481431057147E-007
4.4666715E+004	1.1083118E+002	1.1539620E+001	1.1143031E+002	-5.9441552E+000	1.824047051966772E+001	2.2807436E-002	2.3277688E-003	3.0877677E-001	3.3114708E-003	1.000000000000000E+000	11	1.4005657E-001	1.2568983E-003	5.694213191371980E-005	0.0000000E+000	-1.0011999E+002	8.9259669E-003	9.2936179E-004	8.9742187E-003	5.9441552E+000	1.099991244328620E-006
3.9814063E+004	1.1090793E+002	1.2151317E+001	1.1157160E+002	-6.2525129E+000	1.883547836125945E+001	2.2836717E-002	2.4466801E-003	3.2897305E-001	3.9021112E-003	1.000000000000000E+000	11	1.3034858E-001	1.1682953E-003	5.813247205371347E-005	0.0000000E+000	-1.0009594E+002	8.9095384E-003	9.7614864E-004	8.9628538E-003	6.2525129E+000	1.190340139993672E-006
3.5480996E+004	1.1100792E+002	1.2904584E+001	1.1175548E+002	-6.6308270E+000	1.929548672979581E+001	2.2815321E-002	2.1766040E-003	3.4760043E-001	4.6347966E-003	1.000000000000000E+000	11	1.3967061E-001	1.2497876E-003	5.753692391695869E-005	0.0000000E+000	-1.0008792E+002	8.8882511E-003	1.0332522E-003	8.9481073E-003	6.6308270E+000	-5.955481367547866E-007
3.1621143E+004	1.1110239E+002	1.3824431E+001	1.1195918E+002	-7.0928378E+000	1.989048942472436E+001	2.2850081E-002	2.3676502E-003	3.6407870E-001	5.5509903E-003	1.000000000000000E+000	11	1.3009617E-001	1.1619965E-003	6.011223491768922E-005	0.0000000E+000	-1.0007188E+002	8.8634752E-003	1.1028791E-003	8.9318268E-003	7.0928378E+000	2.575311000730534E-006
2.8188096E+004	1.1121545E+002	1.4893476E+001	1.1220826E+002	-7.6274147E+000	2.035047256658436E+001	2.2845626E-002	2.3939323E-003	3.7910396E-001	6.6788364E-003	1.000000000000000E+000	11	1.3760808E-001	1.2263632E-003	6.001003157099735E-005	0.0000000E+000	-1.0010395E+002	8.8331476E-003	1.1828955E-003	8.9119999E-003	7.6274147E+000	-1.022033466918748E-007
2.5116910E+004	1.1133222E+002	1.6144455E+001	1.1249670E+002	-8.2510338E+000	2.094647395485663E+001	2.2854740E-002	2.3087519E-003	3.9249173E-001	8.0834683E-003	1.000000000000000E+000	11	1.2966594E-001	1.1526200E-003	5.937494275232570E-005	0.0000000E+000	-1.0006387E+002	8.7971361E-003	1.2756862E-003	8.8891499E-003	8.2510338E+000	-6.350888186716454E-007
2.2389027E+004	1.1148788E+002	1.7582886E+001	1.1286587E+002	-8.9623661E+000	2.140648949673050E+001	2.2853771E-002	2.3244091E-003	4.0429163E-001	9.8118251E-003	1.000000000000000E+000	11	1.3540891E-001	1.1997330E-003	6.082953482535797E-005	0.0000000E+000	-1.0007188E+002	8.7519009E-003	1.3802728E-003	8.8600749E-003	8.9623661E+000	1.454592073032268E-006
1.9948783E+004	1.1165794E+002	1.9238100E+001	1.1330313E+002	-9.7757940E+000	2.186548135851626E+001	2.2849316E-002	2.3512493E-003	4.1470718E-001	1.1955895E-002	1.000000000000000E+000	11	1.4058058E-001	1.2407475E-003	6.061475771739303E-005	0.0000000E+000	-1.0009594E+002	8.6977268E-003	1.4985744E-003	8.8258814E-003	9.7757940E+000	-2.147771079649409E-007
1.7786895E+004	1.1183868E+002	2.1107380E+001	1.1381305E+002	-1.0687754E+001	2.246148661352345E+001	2.2867190E-002	2.3286953E-003	4.2392173E-001	1.4580427E-002	1.000000000000000E+000	11	1.2969239E-001	1.1395212E-003	5.872757829736737E-005	0.0000000E+000	-1.0007990E+002	8.6339172E-003	1.6294844E-003	8.7863384E-003	1.0687754E+001	-1.887179420025655E-006
1.5847686E+004	1.1206817E+002	2.3231710E+001	1.1445081E+002	-1.1711524E+001	2.292047442196053E+001	2.2870339E-002	2.2675602E-003	4.3228793E-001	1.7811388E-002	1.000000000000000E+000	11	1.3319182E-001	1.1637474E-003	5.843511147145828E-005	0.0000000E+000	-1.0005585E+002	8.5554840E-003	1.7735502E-003	8.7373788E-003	1.1711524E+001	-2.924668259090887E-007
1.4121879E+004	1.1233618E+002	2.5633406E+001	1.1522365E+002	-1.2853946E+001	2.338048889717902E+001	2.2863965E-002	2.2806081E-003	4.3966442E-001	2.1759590E-002	1.000000000000000E+000	11	1.3614042E-001	1.1815319E-003	5.862734551278602E-005	0.0000000E+000	-1.0008792E+002	8.4612872E-003	1.9307368E-003	8.6787743E-003	1.2853946E+001	1.922340413277414E-007
1.2590932E+004	1.1264665E+002	2.8312532E+001	1.1615019E+002	-1.4108444E+001	2.384049513234640E+001	2.2871645E-002	2.2664417E-003	4.4646102E-001	2.6527792E-002	1.000000000000000E+000	11	1.3857362E-001	1.1930554E-003	5.804641417726978E-005	0.0000000E+000	-1.0004784E+002	8.3498452E-003	2.0986444E-003	8.6095426E-003	1.4108444E+001	-5.809313355162468E-007
1.1217711E+004	1.1301191E+002	3.1338799E+001	1.1727665E+002	-1.5498975E+001	2.429949670078349E+001	2.2875410E-002	2.3713789E-003	4.5272404E-001	3.2327726E-002	1.000000000000000E+000	11	1.4056544E-001	1.1985799E-003	5.880136610242900E-005	0.0000000E+000	-1.0003982E+002	8.2167704E-003	2.2785536E-003	8.5268468E-003	1.5498975E+001	7.549519251592223E-007
1.0002229E+004	1.1341269E+002	3.4694077E+001	1.1860066E+002	-1.7009396E+001	2.489549360910314E+001	2.2868980E-002	2.3633630E-003	4.5863584E-001	3.9246812E-002	1.000000000000000E+000	11	1.2944344E-001	1.0914225E-003	5.822456545880737E-005	0.0000000E+000	-1.0009594E+002	8.0628283E-003	2.4665000E-003	8.4316563E-003	1.7009396E+001	-5.768006436216282E-007
8.9149297E+003	1.1390493E+002	3.8466831E+001	1.2022491E+002	-1.8660337E+001	2.537791248538997E+001	2.2874478E-002	2.3706325E-003	4.6410450E-001	4.7511600E-002	1.000000000000000E+000	11	1.3055140E-001	1.0858930E-003	5.884696318129944E-005	0.0000000E+000	-1.0006387E+002	7.8804959E-003	2.6613220E-003	8.3177434E-003	1.8660337E+001	6.223977224920679E-007
7.9439976E+003	1.1447643E+002	4.2685829E+001	1.2217583E+002	-2.0449417E+001	2.590398952370742E+001	2.2891177E-002	2.4332579E-003	4.6935052E-001	5.7292026E-002	1.000000000000000E+000	11	1.3138917E-001	1.0754105E-003	5.832023762923685E-005	0.0000000E+000	-1.0011999E+002	7.6691192E-003	2.8596516E-003	8.1849247E-003	2.0449417E+001	-5.267255520625914E-007
7.0822334E+003	1.1513734E+002	4.7359882E+001	1.2449725E+002	-2.2359024E+001	2.648086227109889E+001	2.2900647E-002	2.4744498E-003	4.7450334E-001	6.8665884E-002	1.000000000000000E+000	11	1.3199151E-001	1.0601962E-003	5.899013043781452E-005	0.0000000E+000	-1.0007990E+002	7.4284240E-003	3.0555620E-003	8.0323061E-003	2.2359024E+001	6.698928085776683E-007
6.3077344E+003	1.1590288E+002	5.2595299E+001	1.2727821E+002	-2.4407963E+001	2.711555715455324E+001	2.2909351E-002	2.3581432E-003	4.7973326E-001	8.1919178E-002	1.000000000000000E+000	11	1.3239256E-001	1.0401824E-003	5.934177771391761E-005	0.0000000E+000	-1.0006387E+002	7.1546128E-003	3.2466752E-003	7.8568049E-003	2.4407963E+001	3.516472761030950E-007
5.6210552E+003	1.1679073E+002	5.8396294E+001	1.3057642E+002	-2.6565416E+001	2.781628945449484E+001	2.2907412E-002	2.3857281E-003	4.8486072E-001	9.6974611E-002	1.000000000000000E+000	11	1.3262953E-001	1.0157235E-003	5.969282936641766E-005	0.0000000E+000	-1.0005585E+002	6.8498151E-003	3.4249623E-003	7.6583507E-003	2.6565416E+001	3.510516525000436E-007
5.0116035E+003	1.1780665E+002	6.4796638E+001	1.3445078E+002	-2.8811907E+001	2.857670770400728E+001	2.2928454E-002	2.5089278E-003	4.9010703E-001	1.1383329E-001	1.000000000000000E+000	11	1.3273479E-001	9.8723709E-004	5.955112171887433E-005	0.0000000E+000	-1.0009594E+002	6.5169320E-003	3.5844776E-003	7.4376664E-003	2.8811907E+001	-1.417076475433235E-007
4.4664292E+003	1.1899110E+002	7.1913383E+001	1.3903387E+002	-3.1147058E+001	2.933668358010618E+001	2.2916209E-002	2.4586059E-003	4.9550721E-001	1.3256478E-001	1.000000000000000E+000	11	1.3273479E-001	9.5469388E-004	5.930681331858311E-005	0.0000000E+000	-1.0011999E+002	6.1556404E-003	3.7202185E-003	7.1924916E-003	3.1147058E+001	-2.443084002912255E-007
3.9812742E+003	1.2036221E+002	7.9782509E+001	1.4440329E+002	-3.3538548E+001	3.009666369620390E+001	2.2906927E-002	2.3186286E-003	5.0106072E-001	1.5295073E-001	1.000000000000000E+000	11	1.3264409E-001	9.1856695E-004	5.921571902137819E-005	0.0000000E+000	-1.0007990E+002	5.7721282E-003	3.8260755E-003	6.9250502E-003	3.3538548E+001	-9.109429720491487E-008
