EC-Lab ASCII FILE
Nb header lines : 75                          

Potentio Electrochemical Impedance Spectroscopy

Run on channel : 2 (SN 20919)
User : 
CE vs. WE compliance from -10 V to 10 V
Electrode connection : standard
Ewe ctrl range : min = -10.00 V, max = 10.00 V
Safety Limits :
	Do not start on E overload
Acquisition started on : 01/24/2020 09:45:23
Technique started on : 01/24/2020 09:45:24
Saved on :
	File : DE_40_2_60.mpr
	Directory : P:\Chemistry\Data\VMP3\Kyler\DOE\DE_40\2ND 60C\
	Host : 10.0.4.99
Device : VMP3 (SN 0183)
Address : USB
EC-Lab for windows v11.33 (software)
Internet server v11.32 (firmware)
Command interpretor v11.33 (firmware)
Electrode material : 
Initial state : 
Electrolyte : 
Comments : 
Electrode surface area : 0.001 cm²
Characteristic mass : 0.001 g
Equivalent Weight : 0.000 g/eq.
Density : 0.000 g/cm3
Record Analogic IN 1
Cycle Definition : Charge/Discharge alternance
External device configuration :
   device type : Thermostat
   device name : Other
   Analog OUT : 
      mode : E/V
      unit : T/°C
      max : 400.000 at 5.000 V
      min : -100.000 at 0.000 V
      current : 0.000
   Analog IN 1 : 
      unit : T/°C
      max : 400.000 at 5.000 V
      min : -100.000 at 0.000 V
Mode                Single sine         
E (V)               0.0000              
vs.                 Eoc                 
tE (h:m:s)          0:00:0.0000         
record              0                   
dI                  1.000               
unit dI             mA                  
dt (s)              0.000               
fi                  1.000               
unit fi             MHz                 
ff                  1.000               
unit ff             Hz                  
Nd                  20                  
Points              per decade          
spacing             Logarithmic         
Va (mV)             128.0               
pw                  0.50                
Na                  3                   
corr                0                   
E range min (V)     -10.000             
E range max (V)     10.000              
I Range             Auto                
Bandwidth           5                   
nc cycles           0                   
goto Ns'            0                   
nr cycles           0                   
inc. cycle          1                   

freq/Hz	Re(Z)/Ohm	-Im(Z)/Ohm	|Z|/Ohm	Phase(Z)/deg	time/s	<Ewe>/V	<I>/mA	Cs/µF	Cp/µF	cycle number	I Range	|Ewe|/V	|I|/A	(Q-Qo)/mA.h	Analog OUT/V	Analog IN 1/V	Re(Y)/Ohm-1	Im(Y)/Ohm-1	|Y|/Ohm-1	Phase(Y)/deg	dq/mA.h	
1.0000186E+006	5.4512085E+001	1.2467592E+001	5.5919659E+001	-1.2882680E+001	1.644480504764942E+000	-3.5080414E-002	1.4262694E-003	1.2765255E-002	6.3454971E-004	1.000000000000000E+000	11	9.3482807E-004	1.6717342E-005	3.447099543460455E-007	0.0000000E+000	-1.0010986E+002	1.7432664E-002	3.9870669E-003	1.7882798E-002	1.2882680E+001	3.447099543460455E-007
8.9124669E+005	5.4781143E+001	9.9486389E+000	5.5677185E+001	-1.0293134E+001	2.240487333066994E+000	-3.4645800E-002	1.6661981E-003	1.7949756E-002	5.7310122E-004	1.000000000000000E+000	11	1.5820720E-003	2.8415086E-005	7.131817048151181E-007	0.0000000E+000	-1.0011788E+002	1.7671628E-002	3.2092915E-003	1.7960679E-002	1.0293134E+001	3.684717504690727E-007
7.9433269E+005	5.5901787E+001	8.0679350E+000	5.6480984E+001	-8.2124147E+000	2.836474694689969E+000	-3.4302905E-002	1.5561774E-003	2.4834493E-002	5.0672877E-004	1.000000000000000E+000	11	2.5488560E-003	4.5127683E-005	1.085397280936566E-006	0.0000000E+000	-1.0009383E+002	1.7523514E-002	2.5290528E-003	1.7705074E-002	8.2124147E+000	3.722155761214482E-007
7.0794981E+005	5.7193165E+001	6.8631186E+000	5.7603477E+001	-6.8427129E+000	3.432487736368785E+000	-3.4020882E-002	1.4857424E-003	3.2756399E-002	4.6498800E-004	1.000000000000000E+000	11	3.9194557E-003	6.8041998E-005	1.277489154403156E-006	0.0000000E+000	-1.0006977E+002	1.7236408E-002	2.0683503E-003	1.7360063E-002	6.8427129E+000	1.920918734665899E-007
6.3095681E+005	5.8379940E+001	6.0276222E+000	5.8690285E+001	-5.8947973E+000	4.028491711331299E+000	-3.3780951E-002	1.4218115E-003	4.1847978E-002	4.4140179E-004	1.000000000000000E+000	11	5.7385922E-003	9.7777549E-005	1.444308282677310E-006	0.0000000E+000	-1.0010986E+002	1.6948497E-002	1.7499015E-003	1.7038595E-002	5.8947973E+000	1.668191282741543E-007
5.6234225E+005	5.9374722E+001	5.4186587E+000	5.9621468E+001	-5.2144856E+000	4.624485392967472E+000	-3.3571258E-002	1.5032140E-003	5.2230913E-002	4.3142558E-004	1.000000000000000E+000	11	8.0259470E-003	1.3461505E-004	1.879535396208262E-006	0.0000000E+000	-1.0007779E+002	1.6703069E-002	1.5243563E-003	1.6772483E-002	5.2144856E+000	4.352271135309519E-007
5.0120619E+005	6.0183929E+001	4.9455819E+000	6.0386787E+001	-4.6976948E+000	5.221486754628131E+000	-3.3403102E-002	1.5996698E-003	6.4207584E-002	4.3066271E-004	1.000000000000000E+000	11	1.0808854E-002	1.7899369E-004	1.704172884663826E-006	0.0000000E+000	-1.0007779E+002	1.6504284E-002	1.3562306E-003	1.6559914E-002	4.6976948E+000	-1.753625115444367E-007
4.4668572E+005	6.0828522E+001	4.5564904E+000	6.0998940E+001	-4.2838626E+000	5.816489422897575E+000	-3.3300810E-002	1.4379830E-003	7.8196548E-002	4.3631881E-004	1.000000000000000E+000	11	1.4116683E-002	2.3142506E-004	1.940986145564238E-006	0.0000000E+000	-1.0008581E+002	1.6347928E-002	1.2245765E-003	1.6393729E-002	4.2838626E+000	2.368132609004128E-007
3.9810347E+005	6.1301060E+001	4.1959739E+000	6.1444496E+001	-3.9157102E+000	6.412474571232451E+000	-3.3255883E-002	1.3878070E-003	9.5277727E-002	4.4431502E-004	1.000000000000000E+000	11	1.7963652E-002	2.9235575E-004	2.055257642662683E-006	0.0000000E+000	-1.0006977E+002	1.6236858E-002	1.1113908E-003	1.6274851E-002	3.9157102E+000	1.142714970984445E-007
3.5480997E+005	6.1659000E+001	3.8724723E+000	6.1780487E+001	-3.5937216E+000	7.007478759478545E+000	-3.3251483E-002	1.2382031E-003	1.1583398E-001	4.5510329E-004	1.000000000000000E+000	11	2.2392893E-002	3.6245899E-004	2.772040006430972E-006	0.0000000E+000	-1.0014193E+002	1.6154511E-002	1.0145785E-003	1.6186340E-002	3.5937216E+000	7.167823637682887E-007
3.1622997E+005	6.1922073E+001	3.6053891E+000	6.2026947E+001	-3.3322628E+000	7.602480974426726E+000	-3.3250626E-002	1.4669825E-003	1.3959342E-001	4.7163761E-004	1.000000000000000E+000	11	2.7440647E-002	4.4239880E-004	3.659126020185391E-006	0.0000000E+000	-1.0009383E+002	1.6094767E-002	9.3711162E-004	1.6122025E-002	3.3322628E+000	8.870860137544191E-007
2.8183453E+005	6.2084099E+001	3.3518546E+000	6.2174515E+001	-3.0903380E+000	8.197491215978516E+000	-3.3265911E-002	1.5545166E-003	1.6847706E-001	4.8965059E-004	1.000000000000000E+000	11	3.3189319E-002	5.3380907E-004	3.089555018135191E-006	0.0000000E+000	-1.0009383E+002	1.6060371E-002	8.6708233E-004	1.6083760E-002	3.0903380E+000	-5.695710020501995E-007
2.5118764E+005	6.2200085E+001	3.1448131E+000	6.2279533E+001	-2.8943887E+000	8.792489724262850E+000	-3.3270925E-002	1.5578672E-003	2.0147772E-001	5.1371945E-004	1.000000000000000E+000	11	3.9674003E-002	6.3703116E-004	3.283490338615795E-006	0.0000000E+000	-1.0010184E+002	1.6036157E-002	8.1078213E-004	1.6056640E-002	2.8943887E+000	1.939353204806037E-007
2.2387173E+005	6.2269989E+001	2.9664319E+000	6.2340607E+001	-2.7274075E+000	9.389489965949906E+000	-3.3265501E-002	1.6173425E-003	2.3965499E-001	5.4264173E-004	1.000000000000000E+000	11	4.6948984E-002	7.5310440E-004	3.876790028718662E-006	0.0000000E+000	-1.0010184E+002	1.6022738E-002	7.6329481E-004	1.6040908E-002	2.7274075E+000	5.932996901028673E-007
1.9954350E+005	6.2321953E+001	2.8224688E+000	6.2385834E+001	-2.5930688E+000	9.986478554288624E+000	-3.3276223E-002	1.5043491E-003	2.8258780E-001	5.7841523E-004	1.000000000000000E+000	11	5.4956209E-002	8.8090845E-004	2.894187795224651E-006	0.0000000E+000	-1.0009383E+002	1.6012866E-002	7.2519894E-004	1.6029280E-002	2.5930688E+000	-9.826022334940109E-007
1.7783180E+005	6.2353821E+001	2.7245538E+000	6.2413319E+001	-2.5019507E+000	1.058248431593529E+001	-3.3278663E-002	1.3556735E-003	3.2848483E-001	6.2596716E-004	1.000000000000000E+000	11	6.3673645E-002	1.0201932E-003	2.880805926623806E-006	0.0000000E+000	-1.0007779E+002	1.6006948E-002	6.9942448E-004	1.6022222E-002	2.5019507E+000	-1.338186860084539E-008
1.5848613E+005	6.2366833E+001	2.6624749E+000	6.2423637E+001	-2.4445045E+000	1.117848925091675E+001	-3.3259165E-002	1.3889427E-003	3.7717539E-001	6.8614556E-004	1.000000000000000E+000	11	7.3050126E-002	1.1702318E-003	8.979177744671082E-007	0.0000000E+000	-1.0007779E+002	1.6004996E-002	6.8326219E-004	1.6019573E-002	2.4445045E+000	-1.982888152156698E-006
1.4125594E+005	6.2371288E+001	2.6313856E+000	6.2426773E+001	-2.4158218E+000	1.177449445254751E+001	-3.3248909E-002	1.4997172E-003	4.2818248E-001	7.6077483E-004	1.000000000000000E+000	11	8.3067283E-002	1.3306355E-003	2.278554375516251E-008	0.0000000E+000	-1.0010986E+002	1.6004533E-002	6.7521597E-004	1.6018769E-002	2.4158218E+000	-8.751322307119457E-007
1.2590930E+005	6.2371830E+001	2.6376779E+000	6.2427578E+001	-2.4215710E+000	1.237148589422577E+001	-3.3254202E-002	1.4486159E-003	4.7922623E-001	8.5552188E-004	1.000000000000000E+000	11	9.3876101E-002	1.5037601E-003	5.764529628989597E-007	0.0000000E+000	-1.0014193E+002	1.6004257E-002	6.7681319E-004	1.6018562E-002	2.4215710E+000	5.536674191437973E-007
1.1220494E+005	6.2371521E+001	2.6749644E+000	6.2428856E+001	-2.4557731E+000	1.296747472256538E+001	-3.3215147E-002	1.8933526E-003	5.3026158E-001	9.7354362E-004	1.000000000000000E+000	11	1.0557195E-001	1.6910761E-003	-5.977715565564318E-007	0.0000000E+000	-1.0010184E+002	1.6003523E-002	6.8635255E-004	1.6018234E-002	2.4557731E+000	-1.174224519455391E-006
1.0000371E+005	6.2380547E+001	2.7463703E+000	6.2440971E+001	-2.5208802E+000	1.342749111776357E+001	-3.3235095E-002	1.6207182E-003	5.7948858E-001	1.1210470E-003	1.000000000000000E+000	11	1.1830509E-001	1.8946710E-003	-1.706154050111460E-006	0.0000000E+000	-1.0013391E+002	1.5999626E-002	7.0440071E-004	1.6015125E-002	2.5208802E+000	-1.108382493555028E-006
8.9129305E+004	6.2384521E+001	2.8467498E+000	6.2449440E+001	-2.6127262E+000	1.388647764621419E+001	-3.3241842E-002	1.3062637E-003	6.2726390E-001	1.3034423E-003	1.000000000000000E+000	11	1.3215838E-001	2.1162461E-003	-1.849246346107167E-006	0.0000000E+000	-1.0010986E+002	1.5996307E-002	7.2994846E-004	1.6012954E-002	2.6127262E+000	-1.430922959957063E-007
7.9433273E+004	6.2379917E+001	2.9775689E+000	6.2450939E+001	-2.7328143E+000	1.448248783449526E+001	-3.3167813E-002	1.7816594E-003	6.7290831E-001	1.5296834E-003	1.000000000000000E+000	11	1.2971410E-001	2.0770561E-003	-4.900912313101193E-006	0.0000000E+000	-1.0006175E+002	1.5994359E-002	7.6345570E-004	1.6012570E-002	2.7328143E+000	-3.051665966994026E-006
7.0794977E+004	6.2376717E+001	3.1529469E+000	6.2456352E+001	-2.8936586E+000	1.507749055614113E+001	-3.3148292E-002	1.5173876E-003	7.1301883E-001	1.8171095E-003	1.000000000000000E+000	11	1.2963058E-001	2.0755387E-003	-6.249221532327485E-006	0.0000000E+000	-1.0005373E+002	1.5990768E-002	8.0828299E-004	1.6011182E-002	2.8936586E+000	-1.348309219226292E-006
6.3093828E+004	6.2374947E+001	3.3583944E+000	6.2465294E+001	-3.0819457E+000	1.567348087774008E+001	-3.3117104E-002	1.5987866E-003	7.5110656E-001	2.1711376E-003	1.000000000000000E+000	11	1.2958449E-001	2.0745038E-003	-7.710920036136586E-006	0.0000000E+000	-1.0013391E+002	1.5985735E-002	8.6070452E-004	1.6008889E-002	3.0819457E+000	-1.461698503809101E-006
5.6237012E+004	6.2368988E+001	3.6025794E+000	6.2472950E+001	-3.3058653E+000	1.627049445276498E+001	-3.3097867E-002	1.6409734E-003	7.8556895E-001	2.6123263E-003	1.000000000000000E+000	11	1.2948488E-001	2.0726551E-003	-2.533682206391960E-006	0.0000000E+000	-1.0012590E+002	1.5980290E-002	9.2305912E-004	1.6006928E-002	3.3058653E+000	5.177237829744627E-006
5.0122477E+004	6.2370808E+001	3.8906188E+000	6.2492035E+001	-3.5694196E+000	1.686749256114126E+001	-3.3076297E-002	1.5946978E-003	8.1614798E-001	3.1634206E-003	1.000000000000000E+000	11	1.2953177E-001	2.0727725E-003	-2.353555322262562E-006	0.0000000E+000	-1.0006977E+002	1.5970996E-002	9.9625229E-004	1.6002038E-002	3.5694196E+000	1.801268841293977E-007
4.4666715E+004	6.2373131E+001	4.2258434E+000	6.2516121E+001	-3.8759243E+000	1.746247330939514E+001	-3.3065762E-002	1.5318801E-003	8.4318465E-001	3.8527024E-003	1.000000000000000E+000	11	1.2941977E-001	2.0701825E-003	-3.173245578499821E-006	0.0000000E+000	-1.0005373E+002	1.5959289E-002	1.0812581E-003	1.5995875E-002	3.8759243E+000	-8.196902562372592E-007
3.9814063E+004	6.2377502E+001	4.6121778E+000	6.2547783E+001	-4.2287412E+000	1.805747584431083E+001	-3.3043839E-002	1.5058621E-003	8.6671752E-001	4.7126571E-003	1.000000000000000E+000	11	1.2934977E-001	2.0680153E-003	-3.690257607998016E-006	0.0000000E+000	-1.0005373E+002	1.5944252E-002	1.1789141E-003	1.5987776E-002	4.2287412E+000	-5.170120294981945E-007
3.5480996E+004	6.2384403E+001	5.0571346E+000	6.2589043E+001	-4.6344957E+000	1.865448387266952E+001	-3.3043969E-002	1.3557018E-003	8.8699222E-001	5.7907156E-003	1.000000000000000E+000	11	1.2928450E-001	2.0656092E-003	-7.140188427486768E-007	0.0000000E+000	-1.0004572E+002	1.5924998E-002	1.2909453E-003	1.5977237E-002	4.6344957E+000	2.976238765249339E-006
3.1621143E+004	6.2404682E+001	5.5586982E+000	6.2651764E+001	-5.0901885E+000	1.911449221454677E+001	-3.3031255E-002	1.5277949E-003	9.0546042E-001	7.1276943E-003	1.000000000000000E+000	11	1.4025749E-001	2.2386839E-003	1.332863941982699E-006	0.0000000E+000	-1.0006175E+002	1.5898297E-002	1.4161411E-003	1.5961243E-002	5.0901885E+000	2.046882784731376E-006
2.8188096E+004	6.2425293E+001	6.1286554E+000	6.2725414E+001	-5.6070929E+000	1.971047685618396E+001	-3.3009443E-002	1.5837330E-003	9.2127484E-001	8.7949326E-003	1.000000000000000E+000	11	1.3028693E-001	2.0770996E-003	2.989535247001590E-007	0.0000000E+000	-1.0010184E+002	1.5866222E-002	1.5576796E-003	1.5942501E-002	5.6070929E+000	-1.033910417282540E-006
2.5116910E+004	6.2456219E+001	6.7689638E+000	6.2821957E+001	-6.1855354E+000	2.017048015803448E+001	-3.3000700E-002	1.5701670E-003	9.3612045E-001	1.0868089E-002	1.000000000000000E+000	11	1.3979042E-001	2.2251841E-003	7.979367408487532E-007	0.0000000E+000	-1.0006977E+002	1.5825329E-002	1.7151388E-003	1.5918002E-002	6.1855354E+000	4.989832161485941E-007
2.2389027E+004	6.2489628E+001	7.4912500E+000	6.2937050E+001	-6.8359895E+000	2.076549423960387E+001	-3.2979634E-002	1.7106639E-003	9.4892222E-001	1.3443936E-002	1.000000000000000E+000	11	1.3017303E-001	2.0683052E-003	-2.339339451566856E-006	0.0000000E+000	-1.0006175E+002	1.5775938E-002	1.8912177E-003	1.5888892E-002	6.8359895E+000	-3.137276192415609E-006
1.9948783E+004	6.2540798E+001	8.3051529E+000	6.3089832E+001	-7.5643792E+000	2.122547690148349E+001	-3.2986198E-002	1.5848510E-003	9.6062988E-001	1.6646871E-002	1.000000000000000E+000	11	1.3791712E-001	2.1860434E-003	-3.402626001749822E-006	0.0000000E+000	-1.0006977E+002	1.5712479E-002	2.0865507E-003	1.5850415E-002	7.5643792E+000	-1.063286550182966E-006
1.7786895E+004	6.2592831E+001	9.2085285E+000	6.3266575E+001	-8.3692017E+000	2.182148506309022E+001	-3.2973409E-002	1.6255483E-003	9.7169453E-001	2.0585509E-002	1.000000000000000E+000	11	1.2969944E-001	2.0500468E-003	-3.295434773265798E-006	0.0000000E+000	-1.0007779E+002	1.5637811E-002	2.3006026E-003	1.5806135E-002	8.3692017E+000	1.071912284840234E-007
1.5847686E+004	6.2668102E+001	1.0236600E+001	6.3498653E+001	-9.2771196E+000	2.228148247164791E+001	-3.2973129E-002	1.6006479E-003	9.8106670E-001	2.5496524E-002	1.000000000000000E+000	11	1.3562503E-001	2.1358726E-003	-3.474237245093617E-006	0.0000000E+000	-1.0003770E+002	1.5542379E-002	2.5387895E-003	1.5748365E-002	9.2771196E+000	-1.788024718278189E-007
1.4121879E+004	6.2749714E+001	1.1377476E+001	6.3772827E+001	-1.0276947E+001	2.287649367321865E+001	-3.2961383E-002	1.7249750E-003	9.9056214E-001	3.1528421E-002	1.000000000000000E+000	11	1.2922068E-001	2.0262655E-003	-2.169221151309709E-006	0.0000000E+000	-1.0008581E+002	1.5429094E-002	2.7975291E-003	1.5680660E-002	1.0276947E+001	1.305016093783908E-006
1.2590932E+004	6.2856464E+001	1.2649619E+001	6.4116676E+001	-1.1378567E+001	2.333548393499223E+001	-3.2965485E-002	1.6432063E-003	9.9927455E-001	3.8895354E-002	1.000000000000000E+000	11	1.3346434E-001	2.0815853E-003	-2.809521709374773E-007	0.0000000E+000	-1.0010986E+002	1.5290017E-002	3.0770565E-003	1.5596567E-002	1.1378567E+001	1.888268980372232E-006
1.1217711E+004	6.2984352E+001	1.4074361E+001	6.4537712E+001	-1.2596266E+001	2.379549611688708E+001	-3.2963134E-002	1.6417194E-003	1.0080620E+000	4.7942143E-002	1.000000000000000E+000	11	1.3712427E-001	2.1247154E-003	1.336391792283393E-006	0.0000000E+000	-1.0010986E+002	1.5121871E-002	3.3791037E-003	1.5494816E-002	1.2596266E+001	1.617343963220871E-006
1.0002229E+004	6.3138107E+001	1.5654984E+001	6.5049973E+001	-1.3925550E+001	2.425549445868819E+001	-3.2965653E-002	1.5770448E-003	1.0164140E+000	5.8868330E-002	1.000000000000000E+000	11	1.4018537E-001	2.1550411E-003	8.696976411156356E-007	0.0000000E+000	-1.0005373E+002	1.4920979E-002	3.6996312E-003	1.5372797E-002	1.3925550E+001	-4.666941511677578E-007
8.9149297E+003	6.3306396E+001	1.7423878E+001	6.5660423E+001	-1.5388551E+001	2.487991638173116E+001	-3.2946844E-002	1.7985657E-003	1.0246072E+000	7.2150551E-002	1.000000000000000E+000	11	1.2951256E-001	1.9724602E-003	-1.042957439436577E-006	0.0000000E+000	-1.0010184E+002	1.4683859E-002	4.0414520E-003	1.5229874E-002	1.5388551E+001	-1.912655080552213E-006
7.9439976E+003	6.3515099E+001	1.9403080E+001	6.6412704E+001	-1.6987267E+001	2.540597334006452E+001	-3.2935973E-002	1.9121186E-003	1.0325483E+000	8.8135198E-002	1.000000000000000E+000	11	1.3133727E-001	1.9775925E-003	1.306504466273408E-006	0.0000000E+000	-1.0008581E+002	1.4400403E-002	4.3991455E-003	1.5057360E-002	1.6987267E+001	2.349461905709985E-006
7.0822334E+003	6.3753948E+001	2.1585533E+001	6.7308998E+001	-1.8704847E+001	2.598288318078266E+001	-3.2926522E-002	2.0440726E-003	1.0410873E+000	1.0706966E-001	1.000000000000000E+000	11	1.3273457E-001	1.9720183E-003	9.342969306356584E-007	0.0000000E+000	-1.0007779E+002	1.4072162E-002	4.7644912E-003	1.4856854E-002	1.8704847E+001	-3.722075356377497E-007
6.3077344E+003	6.4035645E+001	2.4038460E+001	6.8398911E+001	-2.0575727E+001	2.661755059755524E+001	-3.2918151E-002	1.8608291E-003	1.0496393E+000	1.2964477E-001	1.000000000000000E+000	11	1.3379531E-001	1.9561029E-003	1.159344730911673E-006	0.0000000E+000	-1.0005373E+002	1.3687477E-002	5.1381676E-003	1.4620116E-002	2.0575727E+001	2.250478002760145E-007
5.6210552E+003	6.4361580E+001	2.6749622E+001	6.9699036E+001	-2.2568491E+001	2.731825404419214E+001	-3.2913268E-002	1.9576580E-003	1.0584848E+000	1.5590727E-001	1.000000000000000E+000	11	1.3453266E-001	1.9301940E-003	1.595218447250469E-006	0.0000000E+000	-1.0006175E+002	1.3248697E-002	5.5063539E-003	1.4347401E-002	2.2568491E+001	4.358737163387963E-007
5.0116035E+003	6.4734589E+001	2.9748795E+001	7.1242950E+001	-2.4681156E+001	2.807866640035354E+001	-3.2910302E-002	1.9024605E-003	1.0675151E+000	1.8613541E-001	1.000000000000000E+000	11	1.3500006E-001	1.8949253E-003	2.799047108467979E-006	0.0000000E+000	-1.0004572E+002	1.2754182E-002	5.8611869E-003	1.4036477E-002	2.4681156E+001	1.203828661217510E-006
4.4664292E+003	6.5167084E+001	3.3082451E+001	7.3083496E+001	-2.6914894E+001	2.883770430307050E+001	-3.2906592E-002	2.0031882E-003	1.0771148E+000	2.2070833E-001	1.000000000000000E+000	11	1.3523898E-001	1.8504722E-003	1.641990899399389E-006	0.0000000E+000	-1.0006977E+002	1.2200838E-002	6.1938269E-003	1.3682980E-002	2.6914894E+001	-1.157056209068590E-006
3.9812742E+003	6.5671242E+001	3.6773575E+001	7.5266243E+001	-2.9247286E+001	2.959669964579371E+001	-3.2902490E-002	2.1044759E-003	1.0870817E+000	2.5949764E-001	1.000000000000000E+000	11	1.3530344E-001	1.7976643E-003	2.117888639461146E-006	0.0000000E+000	-1.0010986E+002	1.1592437E-002	6.4913551E-003	1.3286169E-002	2.9247286E+001	4.758977400617570E-007
