EC-Lab ASCII FILE
Nb header lines : 75                          

Potentio Electrochemical Impedance Spectroscopy

Run on channel : 3 (SN 20921)
User : 
CE vs. WE compliance from -10 V to 10 V
Electrode connection : standard
Ewe ctrl range : min = -10.00 V, max = 10.00 V
Safety Limits :
	Do not start on E overload
Acquisition started on : 01/24/2020 09:52:07
Technique started on : 01/24/2020 09:52:08
Saved on :
	File : DE_40_7_60.mpr
	Directory : P:\Chemistry\Data\VMP3\Kyler\DOE\DE_40\2ND 60C\
	Host : 10.0.4.99
Device : VMP3 (SN 0183)
Address : USB
EC-Lab for windows v11.33 (software)
Internet server v11.32 (firmware)
Command interpretor v11.33 (firmware)
Electrode material : 
Initial state : 
Electrolyte : 
Comments : 
Electrode surface area : 0.001 cm²
Characteristic mass : 0.001 g
Equivalent Weight : 0.000 g/eq.
Density : 0.000 g/cm3
Record Analogic IN 1
Cycle Definition : Charge/Discharge alternance
External device configuration :
   device type : Thermostat
   device name : Other
   Analog OUT : 
      mode : E/V
      unit : T/°C
      max : 400.000 at 5.000 V
      min : -100.000 at 0.000 V
      current : 0.000
   Analog IN 1 : 
      unit : T/°C
      max : 400.000 at 5.000 V
      min : -100.000 at 0.000 V
Mode                Single sine         
E (V)               0.0000              
vs.                 Eoc                 
tE (h:m:s)          0:00:0.0000         
record              0                   
dI                  1.000               
unit dI             mA                  
dt (s)              0.000               
fi                  1.000               
unit fi             MHz                 
ff                  1.000               
unit ff             Hz                  
Nd                  20                  
Points              per decade          
spacing             Logarithmic         
Va (mV)             128.0               
pw                  0.50                
Na                  3                   
corr                0                   
E range min (V)     -10.000             
E range max (V)     10.000              
I Range             Auto                
Bandwidth           5                   
nc cycles           0                   
goto Ns'            0                   
nr cycles           0                   
inc. cycle          1                   

freq/Hz	Re(Z)/Ohm	-Im(Z)/Ohm	|Z|/Ohm	Phase(Z)/deg	time/s	<Ewe>/V	<I>/mA	Cs/µF	Cp/µF	cycle number	I Range	|Ewe|/V	|I|/A	(Q-Qo)/mA.h	Analog OUT/V	Analog IN 1/V	Re(Y)/Ohm-1	Im(Y)/Ohm-1	|Y|/Ohm-1	Phase(Y)/deg	dq/mA.h	
1.0000186E+006	5.5886235E+000	-2.1543896E+001	2.2256958E+001	7.5457649E+001	1.845600087690400E+000	9.3312394E-003	2.6173192E-001	-7.3873354E-003	-6.9215712E-003	1.000000000000000E+000	9	2.1368996E-005	9.6010410E-007	2.759336571544474E-005	0.0000000E+000	-1.0008792E+002	1.1281665E-002	-4.3490324E-002	4.4929769E-002	-7.5457649E+001	2.759336571544474E-005
8.9124669E+005	4.9979565E+001	1.0023279E+001	5.0974728E+001	-1.1340096E+001	3.022469983523479E+000	9.6883643E-003	2.0315670E-003	1.7816089E-002	6.8884611E-004	1.000000000000000E+000	11	3.1310270E-004	6.1423125E-006	5.344169267560048E-005	0.0000000E+000	-1.0009594E+002	1.9234577E-002	3.8574475E-003	1.9617565E-002	1.1340096E+001	2.584832696015575E-005
7.9433269E+005	5.0685020E+001	9.0196629E+000	5.1481312E+001	-1.0090452E+001	3.618473771814024E+000	1.0018166E-002	1.9046377E-003	2.2214033E-002	6.8188133E-004	1.000000000000000E+000	11	9.1421488E-004	1.7758190E-005	5.391074445428694E-005	0.0000000E+000	-1.0011197E+002	1.9124074E-002	3.4032285E-003	1.9424524E-002	1.0090452E+001	4.690517786864597E-007
7.0794981E+005	5.2225689E+001	8.0114965E+000	5.2836605E+001	-8.7212696E+000	4.214493053470505E+000	1.0335574E-002	2.0757425E-003	2.8061057E-002	6.4515119E-004	1.000000000000000E+000	11	1.8992213E-003	3.5945181E-005	5.420857080257853E-005	0.0000000E+000	-1.0012801E+002	1.8707441E-002	2.8697483E-003	1.8926272E-002	8.7212696E+000	2.978263482915862E-007
6.3095681E+005	5.3448158E+001	7.3063207E+000	5.3945232E+001	-7.7840405E+000	4.810481695138151E+000	1.0580423E-002	1.9007248E-003	3.4524053E-002	6.3330529E-004	1.000000000000000E+000	11	3.3416869E-003	6.1945917E-005	5.454585831720437E-005	0.0000000E+000	-1.0010395E+002	1.8366510E-002	2.5106871E-003	1.8537320E-002	7.7840405E+000	3.372875146258366E-007
5.6234225E+005	5.4547375E+001	6.8544769E+000	5.4976357E+001	-7.1623030E+000	5.406490550114540E+000	1.0796458E-002	2.0589698E-003	4.1290019E-002	6.4186228E-004	1.000000000000000E+000	11	5.2933493E-003	9.6284108E-005	5.489601105244098E-005	0.0000000E+000	-1.0003982E+002	1.8047702E-002	2.2678922E-003	1.8189637E-002	7.1623030E+000	3.501527352366100E-007
5.0120619E+005	5.5502708E+001	6.3674226E+000	5.5866760E+001	-6.5445170E+000	6.002490445069270E+000	1.0967463E-002	2.1508604E-003	4.9870078E-002	6.4782903E-004	1.000000000000000E+000	11	7.7758231E-003	1.3918514E-004	5.536612539279870E-005	0.0000000E+000	-1.0010395E+002	1.7783089E-002	2.0401247E-003	1.7899731E-002	6.5445170E+000	4.701143403577188E-007
4.4668572E+005	5.6252720E+001	6.0033288E+000	5.6572151E+001	-6.0915885E+000	6.598486260074424E+000	1.1079366E-002	1.8727703E-003	5.9350707E-002	6.6835131E-004	1.000000000000000E+000	11	1.0814871E-002	1.9116951E-004	5.543287874713617E-005	0.0000000E+000	-1.0010395E+002	1.7576732E-002	1.8758009E-003	1.7676542E-002	6.0915885E+000	6.675335433747903E-008
3.9810347E+005	5.6889965E+001	5.6408038E+000	5.7168934E+001	-5.6625328E+000	7.194486048334511E+000	1.1101788E-002	1.8765009E-003	7.0873387E-002	6.8999350E-004	1.000000000000000E+000	11	1.4452686E-002	2.5280664E-004	5.536686181632346E-005	0.0000000E+000	-1.0007188E+002	1.7406661E-002	1.7259205E-003	1.7492017E-002	5.6625328E+000	-6.601693081271804E-008
3.5480997E+005	5.7390652E+001	5.2813945E+000	5.7633152E+001	-5.2578549E+000	7.790486263314961E+000	1.1124377E-002	1.9115444E-003	8.4932856E-002	7.1322767E-004	1.000000000000000E+000	11	1.8699806E-002	3.2446266E-004	5.658044913368778E-005	0.0000000E+000	-1.0011197E+002	1.7278118E-002	1.5900247E-003	1.7351124E-002	5.2578549E+000	1.213587317364329E-006
3.1622997E+005	5.7769730E+001	4.9417424E+000	5.7980709E+001	-4.8892970E+000	8.385493171605049E+000	1.1106709E-002	1.9478920E-003	1.0184436E-001	7.3982700E-004	1.000000000000000E+000	11	2.3579741E-002	4.0668252E-004	5.679606940177554E-005	0.0000000E+000	-1.0009594E+002	1.7184358E-002	1.4699856E-003	1.7247116E-002	4.8892970E+000	2.156202680877572E-007
2.8183453E+005	5.8094467E+001	4.6121974E+000	5.8277264E+001	-4.5392675E+000	8.981486506556394E+000	1.1102161E-002	1.8286039E-003	1.2243851E-001	7.6689431E-004	1.000000000000000E+000	11	2.9189797E-002	5.0087797E-004	5.605648016420795E-005	0.0000000E+000	-1.0007990E+002	1.7105527E-002	1.3580307E-003	1.7159350E-002	4.5392675E+000	-7.395892375675937E-007
2.5118764E+005	5.8329147E+001	4.3302426E+000	5.8489662E+001	-4.2457390E+000	9.577482161548687E+000	1.1109449E-002	1.8140709E-003	1.4632200E-001	8.0200279E-004	1.000000000000000E+000	11	3.5514642E-002	6.0719519E-004	5.672314834006506E-005	0.0000000E+000	-1.0011999E+002	1.7050119E-002	1.2657677E-003	1.7097039E-002	4.2457390E+000	6.666681758571086E-007
2.2387173E+005	5.8503681E+001	4.0753326E+000	5.8645451E+001	-3.9847541E+000	1.017247720315936E+001	1.1125179E-002	1.8651453E-003	1.7444471E-001	8.4239402E-004	1.000000000000000E+000	11	4.2626332E-002	7.2684808E-004	5.743015603982430E-005	0.0000000E+000	-1.0009594E+002	1.7010400E-002	1.1849346E-003	1.7051620E-002	3.9847541E+000	7.070076997592382E-007
1.9954350E+005	5.8647995E+001	3.8476338E+000	5.8774071E+001	-3.7535419E+000	1.076947341815685E+001	1.1142308E-002	2.0690570E-003	2.0729499E-001	8.8839221E-004	1.000000000000000E+000	11	5.0483480E-002	8.5894135E-004	5.877190398379591E-005	0.0000000E+000	-1.0009594E+002	1.6977808E-002	1.1138384E-003	1.7014306E-002	3.7535419E+000	1.341747943971616E-006
1.7783180E+005	5.8760624E+001	3.6752188E+000	5.8875446E+001	-3.5789371E+000	1.136549459313392E+001	1.1161488E-002	2.1087562E-003	2.4351600E-001	9.4891101E-004	1.000000000000000E+000	11	5.9032276E-002	1.0026637E-003	5.916977072812410E-005	0.0000000E+000	-1.0010395E+002	1.6951883E-002	1.0602658E-003	1.6985008E-002	3.5789371E+000	3.978667443281885E-007
1.5848613E+005	5.8838909E+001	3.5311635E+000	5.8944775E+001	-3.4344344E+000	1.196147616810049E+001	1.1177945E-002	2.2299103E-003	2.8438786E-001	1.0206013E-003	1.000000000000000E+000	11	6.8227574E-002	1.1574830E-003	5.797388588523286E-005	0.0000000E+000	-1.0003180E+002	1.6934562E-002	1.0163123E-003	1.6965032E-002	3.4344344E+000	-1.195884842891244E-006
1.4125594E+005	5.8900539E+001	3.4351695E+000	5.9000626E+001	-3.3377964E+000	1.255748408977524E+001	1.1158673E-002	1.8884604E-003	3.2799351E-001	1.1118555E-003	1.000000000000000E+000	11	7.8060076E-002	1.3230381E-003	5.677738400293230E-005	0.0000000E+000	-1.0007188E+002	1.6920220E-002	9.8681310E-004	1.6948972E-002	3.3377964E+000	-1.196501882300557E-006
1.2590930E+005	5.8950058E+001	3.3775299E+000	5.9046738E+001	-3.2791631E+000	1.315449283810449E+001	1.1159009E-002	1.8461569E-003	3.7425113E-001	1.2245309E-003	1.000000000000000E+000	11	8.8618793E-002	1.5008246E-003	5.892847627987956E-005	0.0000000E+000	-1.0011999E+002	1.6908007E-002	9.6874026E-004	1.6935736E-002	3.2791631E+000	2.151092276947260E-006
1.1220494E+005	5.8985439E+001	3.3602643E+000	5.9081074E+001	-3.2604842E+000	1.375047270642244E+001	1.1226740E-002	2.7451091E-003	4.2211884E-001	1.3654784E-003	1.000000000000000E+000	11	1.0001323E-001	1.6928132E-003	5.990842569719017E-005	0.0000000E+000	-1.0013602E+002	1.6898496E-002	9.6266827E-004	1.6925894E-002	3.2604842E+000	9.799494173106101E-007
1.0000371E+005	5.9020870E+001	3.3792591E+000	5.9117531E+001	-3.2769108E+000	1.434548857467598E+001	1.1160631E-002	1.7572574E-003	4.7095832E-001	1.5388380E-003	1.000000000000000E+000	11	1.1241799E-001	1.9016016E-003	6.123106769857987E-005	0.0000000E+000	-1.0006387E+002	1.6887797E-002	9.6691633E-004	1.6915455E-002	3.2769108E+000	1.322642001389698E-006
8.9129305E+004	5.9055485E+001	3.4353933E+000	5.9155323E+001	-3.3292751E+000	1.480448835648713E+001	1.1178766E-002	1.8498919E-003	5.1978427E-001	1.7530263E-003	1.000000000000000E+000	11	1.2588072E-001	2.1279694E-003	5.963614094921569E-005	0.0000000E+000	-1.0011197E+002	1.6876120E-002	9.8172273E-004	1.6904650E-002	3.3292751E+000	-1.594926749364179E-006
7.9433273E+004	5.9087353E+001	3.5329912E+000	5.9192883E+001	-3.4217942E+000	1.526348093830165E+001	1.1200070E-002	2.1017042E-003	5.6712019E-001	2.0203250E-003	1.000000000000000E+000	11	1.4059418E-001	2.3751874E-003	6.157871875130028E-005	0.0000000E+000	-1.0011197E+002	1.6863804E-002	1.0083320E-003	1.6893923E-002	3.4217942E+000	1.942577802084596E-006
7.0794977E+004	5.9107300E+001	3.6713543E+000	5.9221210E+001	-3.5542684E+000	1.585948627328617E+001	1.1248715E-002	1.7123434E-003	6.1233824E-001	2.3533658E-003	1.000000000000000E+000	11	1.3071948E-001	2.2073085E-003	6.084362746465356E-005	0.0000000E+000	-1.0007188E+002	1.6853362E-002	1.0468193E-003	1.6885841E-002	3.5542684E+000	-7.350912866467248E-007
6.3093828E+004	5.9127277E+001	3.8555112E+000	5.9252846E+001	-3.7308030E+000	1.645649176827283E+001	1.1300287E-002	2.2019802E-003	6.5426135E-001	2.7701086E-003	1.000000000000000E+000	11	1.2973365E-001	2.1894923E-003	5.813205317872861E-005	0.0000000E+000	-1.0006387E+002	1.6841060E-002	1.0981547E-003	1.6876826E-002	3.7308030E+000	-2.711574285924948E-006
5.6237012E+004	5.9139851E+001	4.0850921E+000	5.9280773E+001	-3.9514360E+000	1.705349390328047E+001	1.1335103E-002	2.1896784E-003	6.9278109E-001	3.2898192E-003	1.000000000000000E+000	11	1.2953214E-001	2.1850616E-003	5.555795613581884E-005	0.0000000E+000	-1.0007990E+002	1.6828775E-002	1.1624497E-003	1.6868876E-002	3.9514360E+000	-2.574097042909772E-006
5.0122477E+004	5.9158806E+001	4.3598876E+000	5.9319244E+001	-4.2149663E+000	1.764849427822628E+001	1.1360358E-002	2.2273292E-003	7.2830331E-001	3.9343382E-003	1.000000000000000E+000	11	1.2956785E-001	2.1842464E-003	5.848216169179391E-005	0.0000000E+000	-1.0008792E+002	1.6812339E-002	1.2390364E-003	1.6857935E-002	4.2149663E+000	2.924205555975075E-006
4.4666715E+004	5.9178246E+001	4.6906023E+000	5.9363850E+001	-4.5319190E+000	1.824349089313182E+001	1.1373851E-002	2.0375873E-003	7.5963944E-001	4.7426447E-003	1.000000000000000E+000	11	1.2943064E-001	2.1802939E-003	5.672289150421016E-005	0.0000000E+000	-1.0007188E+002	1.6792601E-002	1.3310198E-003	1.6845269E-002	4.5319190E+000	-1.759270187583754E-006
3.9814063E+004	5.9195927E+001	5.0730042E+000	5.9412903E+001	-4.8981967E+000	1.883949105479405E+001	1.1414651E-002	2.5743817E-003	7.8798586E-001	5.7449644E-003	1.000000000000000E+000	11	1.2940374E-001	2.1780410E-003	5.880652615012110E-005	0.0000000E+000	-1.0011197E+002	1.6769892E-002	1.4371553E-003	1.6831361E-002	4.8981967E+000	2.083634645910938E-006
3.5480996E+004	5.9221878E+001	5.5211930E+000	5.9478687E+001	-5.3262291E+000	1.943447068307432E+001	1.1401865E-002	1.9121463E-003	8.1244016E-001	7.0005879E-003	1.000000000000000E+000	11	1.2935618E-001	2.1748324E-003	5.448862672274440E-005	0.0000000E+000	-1.0011197E+002	1.6740153E-002	1.5606667E-003	1.6812745E-002	5.3262291E+000	-4.317899427376693E-006
3.1621143E+004	5.9260647E+001	6.0325675E+000	5.9566906E+001	-5.8125267E+000	1.989347446485772E+001	1.1399554E-002	2.0273365E-003	8.3433485E-001	8.5572591E-003	1.000000000000000E+000	11	1.4067626E-001	2.3616513E-003	5.551762605944209E-005	0.0000000E+000	-1.0006387E+002	1.6701533E-002	1.7001691E-003	1.6787846E-002	5.8125267E+000	1.028999336697681E-006
2.8188096E+004	5.9294186E+001	6.6136022E+000	5.9661880E+001	-6.3643966E+000	2.048947393315029E+001	1.1428573E-002	2.1686149E-003	8.5372168E-001	1.0490558E-002	1.000000000000000E+000	11	1.3041651E-001	2.1859270E-003	5.567129237544335E-005	0.0000000E+000	-1.0002379E+002	1.6657822E-002	1.8579934E-003	1.6761120E-002	6.3643966E+000	1.536663160012656E-007
2.5116910E+004	5.9342945E+001	7.2747450E+000	5.9787182E+001	-6.9889164E+000	2.094949347499642E+001	1.1444845E-002	2.2757875E-003	8.7103611E-001	1.2896014E-002	1.000000000000000E+000	11	1.4031173E-001	2.3468530E-003	5.429807972453354E-005	0.0000000E+000	-1.0009594E+002	1.6601713E-002	2.0351743E-003	1.6725993E-002	6.9889164E+000	-1.373212650909816E-006
2.2389027E+004	5.9395416E+001	8.0228891E+000	5.9934818E+001	-7.6927180E+000	2.154448870327906E+001	1.1450790E-002	2.1714100E-003	8.8604164E-001	1.5876593E-002	1.000000000000000E+000	11	1.3018592E-001	2.1721250E-003	5.176288932184818E-005	0.0000000E+000	-1.0007188E+002	1.6534634E-002	2.2334303E-003	1.6684793E-002	7.6927180E+000	-2.535190402685353E-006
1.9948783E+004	5.9463230E+001	8.8675785E+000	6.0120792E+001	-8.4818459E+000	2.200447509848163E+001	1.1455189E-002	2.1242569E-003	8.9970195E-001	1.9573089E-002	1.000000000000000E+000	11	1.3829967E-001	2.3003635E-003	5.369764169331595E-005	0.0000000E+000	-1.0010395E+002	1.6451258E-002	2.4533281E-003	1.6633181E-002	8.4818459E+000	1.934752371467765E-006
1.7786895E+004	5.9538403E+001	9.8123932E+000	6.0341564E+001	-9.3586645E+000	2.260049526012153E+001	1.1475802E-002	2.1661925E-003	9.1189551E-001	2.4113588E-002	1.000000000000000E+000	11	1.2982190E-001	2.1514506E-003	5.132577950940807E-005	0.0000000E+000	-1.0008792E+002	1.6351743E-002	2.6948948E-003	1.6572325E-002	9.3586645E+000	-2.371862183907874E-006
1.5847686E+004	5.9632774E+001	1.0874874E+001	6.0616257E+001	-1.0335118E+001	2.305948210859788E+001	1.1457146E-002	1.9773834E-003	9.2348540E-001	2.9723523E-002	1.000000000000000E+000	11	1.3609231E-001	2.2451454E-003	4.992829553683340E-005	0.0000000E+000	-1.0006387E+002	1.6229561E-002	2.9596884E-003	1.6497225E-002	1.0335118E+001	-1.397483972574670E-006
1.4121879E+004	5.9736023E+001	1.2068425E+001	6.0942917E+001	-1.1421685E+001	2.365449112348142E+001	1.1476007E-002	2.0411254E-003	9.3384987E-001	3.6621131E-002	1.000000000000000E+000	11	1.2938155E-001	2.1229957E-003	4.949448482592642E-005	0.0000000E+000	-1.0007990E+002	1.6083842E-002	3.2494068E-003	1.6408797E-002	1.1421685E+001	-4.338107109069835E-007
1.2590932E+004	5.9868675E+001	1.3391706E+001	6.1348156E+001	-1.2608633E+001	2.411447925199172E+001	1.1467565E-002	2.0163392E-003	9.4390082E-001	4.4977486E-002	1.000000000000000E+000	11	1.3389449E-001	2.1825349E-003	5.167991039170495E-005	0.0000000E+000	-1.0010395E+002	1.5907306E-002	3.5582208E-003	1.6300408E-002	1.2608633E+001	2.185425565778533E-006
1.1217711E+004	6.0020767E+001	1.4882175E+001	6.1838268E+001	-1.3925667E+001	2.457349130048533E+001	1.1474274E-002	2.1240707E-003	9.5334363E-001	5.5216350E-002	1.000000000000000E+000	11	1.3778205E-001	2.2281033E-003	5.081062890845997E-005	0.0000000E+000	-1.0014404E+002	1.5695926E-002	3.8918115E-003	1.6171217E-002	1.3925667E+001	-8.692814832449782E-007
1.0002229E+004	6.0191280E+001	1.6531624E+001	6.2420227E+001	-1.5357685E+001	2.516847194210277E+001	1.1476660E-002	2.0882797E-003	9.6251565E-001	6.7513116E-002	1.000000000000000E+000	11	1.2929362E-001	2.0713417E-003	5.373172443056763E-005	0.0000000E+000	-1.0010395E+002	1.5448379E-002	4.2429203E-003	1.6020449E-002	1.5357685E+001	2.921095522107661E-006
8.9149297E+003	6.0397831E+001	1.8373665E+001	6.3130733E+001	-1.6920321E+001	2.565091017834493E+001	1.1488308E-002	2.2107384E-003	9.7164232E-001	8.2303122E-002	1.000000000000000E+000	11	1.3172102E-001	2.0864801E-003	5.266749297377990E-005	0.0000000E+000	-1.0006387E+002	1.5154432E-002	4.6101399E-003	1.5840145E-002	1.6920321E+001	-1.064231456787739E-006
7.9439976E+003	6.0633106E+001	2.0430729E+001	6.3982719E+001	-1.8621588E+001	2.617699287002324E+001	1.1499398E-002	2.3126919E-003	9.8061186E-001	9.9986069E-002	1.000000000000000E+000	11	1.3363808E-001	2.0886590E-003	5.500016963810453E-005	0.0000000E+000	-1.0007990E+002	1.4811003E-002	4.9906662E-003	1.5629221E-002	1.8621588E+001	2.332676664324634E-006
7.0822334E+003	6.0905434E+001	2.2704962E+001	6.4999901E+001	-2.0444973E+001	2.675386153740692E+001	1.1507561E-002	2.4711203E-003	9.8975825E-001	1.2076617E-001	1.000000000000000E+000	11	1.3509834E-001	2.0784391E-003	5.558627658232581E-005	0.0000000E+000	-1.0006387E+002	1.4415531E-002	5.3739720E-003	1.5384639E-002	2.0444973E+001	5.861069442212780E-007
6.3077344E+003	6.1214844E+001	2.5251648E+001	6.6218597E+001	-2.2416569E+001	2.738855183418491E+001	1.1514160E-002	2.2890219E-003	9.9921048E-001	1.4530364E-001	1.000000000000000E+000	11	1.3616176E-001	2.0562466E-003	5.495255457875060E-005	0.0000000E+000	-1.0009594E+002	1.3960365E-002	5.7587707E-003	1.5101498E-002	2.2416569E+001	-6.337220035752047E-007
5.6210552E+003	6.1568974E+001	2.8069366E+001	6.7665558E+001	-2.4508299E+001	2.808924696079339E+001	1.1516061E-002	2.3883635E-003	1.0087178E+000	1.7357995E-001	1.000000000000000E+000	11	1.3687600E-001	2.0228312E-003	5.611028281840521E-005	0.0000000E+000	-1.0007188E+002	1.3447036E-002	6.1305198E-003	1.4778567E-002	2.4508299E+001	1.157728239654610E-006
5.0116035E+003	6.1967037E+001	3.1179951E+001	6.9369324E+001	-2.6710167E+001	2.884966545031057E+001	1.1528288E-002	2.4778254E-003	1.0185163E+000	2.0577088E-001	1.000000000000000E+000	11	1.3729428E-001	1.9791785E-003	5.806327429591652E-005	0.0000000E+000	-1.0007990E+002	1.2877329E-002	6.4794854E-003	1.4415594E-002	2.6710167E+001	1.952991477511309E-006
4.4664292E+003	6.2419769E+001	3.4633854E+001	7.1384392E+001	-2.9023874E+001	2.960968697974022E+001	1.1512613E-002	2.3227553E-003	1.0288661E+000	2.4218875E-001	1.000000000000000E+000	11	1.3746947E-001	1.9257638E-003	6.012642723684742E-005	0.0000000E+000	-1.0010395E+002	1.2249423E-002	6.7966399E-003	1.4008665E-002	2.9023874E+001	2.063152940930899E-006
3.9812742E+003	6.2932144E+001	3.8459354E+001	7.3753487E+001	-3.1430109E+001	3.036970720250247E+001	1.1527412E-002	2.4534136E-003	1.0394319E+000	2.8264084E-001	1.000000000000000E+000	11	1.3745680E-001	1.8637329E-003	6.089220043532421E-005	0.0000000E+000	-1.0007188E+002	1.1569309E-002	7.0702843E-003	1.3558681E-002	3.1430109E+001	7.657731984767854E-007
