EC-Lab ASCII FILE
Nb header lines : 75                          

Potentio Electrochemical Impedance Spectroscopy

Run on channel : 1 (SN 20909)
User : 
CE vs. WE compliance from -10 V to 10 V
Electrode connection : standard
Ewe ctrl range : min = -10.00 V, max = 10.00 V
Safety Limits :
	Do not start on E overload
Acquisition started on : 01/24/2020 09:56:07
Technique started on : 01/24/2020 09:56:08
Saved on :
	File : DE_40_13_60.mpr
	Directory : P:\Chemistry\Data\VMP3\Kyler\DOE\DE_40\2ND 60C\
	Host : 10.0.4.99
Device : VMP3 (SN 0183)
Address : USB
EC-Lab for windows v11.33 (software)
Internet server v11.32 (firmware)
Command interpretor v11.33 (firmware)
Electrode material : 
Initial state : 
Electrolyte : 
Comments : 
Electrode surface area : 0.001 cm²
Characteristic mass : 0.001 g
Equivalent Weight : 0.000 g/eq.
Density : 0.000 g/cm3
Record Analogic IN 1
Cycle Definition : Charge/Discharge alternance
External device configuration :
   device type : Thermostat
   device name : Other
   Analog OUT : 
      mode : E/V
      unit : T/°C
      max : 400.000 at 5.000 V
      min : -100.000 at 0.000 V
      current : 0.000
   Analog IN 1 : 
      unit : T/°C
      max : 400.000 at 5.000 V
      min : -100.000 at 0.000 V
Mode                Single sine         
E (V)               0.0000              
vs.                 Eoc                 
tE (h:m:s)          0:00:0.0000         
record              0                   
dI                  1.000               
unit dI             mA                  
dt (s)              0.000               
fi                  1.000               
unit fi             MHz                 
ff                  1.000               
unit ff             Hz                  
Nd                  20                  
Points              per decade          
spacing             Logarithmic         
Va (mV)             128.0               
pw                  0.50                
Na                  3                   
corr                0                   
E range min (V)     -10.000             
E range max (V)     10.000              
I Range             Auto                
Bandwidth           5                   
nc cycles           0                   
goto Ns'            0                   
nr cycles           0                   
inc. cycle          1                   

freq/Hz	Re(Z)/Ohm	-Im(Z)/Ohm	|Z|/Ohm	Phase(Z)/deg	time/s	<Ewe>/V	<I>/mA	Cs/µF	Cp/µF	cycle number	I Range	|Ewe|/V	|I|/A	(Q-Qo)/mA.h	Analog OUT/V	Analog IN 1/V	Re(Y)/Ohm-1	Im(Y)/Ohm-1	|Y|/Ohm-1	Phase(Y)/deg	dq/mA.h	
1.0000186E+006	4.9486881E+001	3.9153454E+001	6.3102650E+001	-3.8350643E+001	1.748485443036770E+000	-1.8271264E-001	2.7714095E-003	4.0648263E-003	1.5649013E-003	1.000000000000000E+000	11	1.5093144E-003	2.3918399E-005	7.107002620547671E-007	0.0000000E+000	-1.0008604E+002	1.2427818E-002	9.8327482E-003	1.5847195E-002	3.8350643E+001	7.107002620547671E-007
8.9124669E+005	5.3129578E+001	3.4374634E+001	6.3280071E+001	-3.2902710E+001	2.344472244643839E+000	-1.8219498E-001	2.8257200E-003	5.1949830E-003	1.5329443E-003	1.000000000000000E+000	11	2.3498191E-003	3.7133635E-005	1.152358694596842E-006	0.0000000E+000	-1.0008604E+002	1.3267908E-002	8.5842852E-003	1.5802763E-002	3.2902710E+001	4.416584325420749E-007
7.9433269E+005	5.6573231E+001	3.0871607E+001	6.4448326E+001	-2.8620981E+001	2.940493366302690E+000	-1.8175149E-001	2.7564799E-003	6.4902054E-003	1.4892021E-003	1.000000000000000E+000	11	3.5739786E-003	5.5454948E-005	1.628013228886428E-006	0.0000000E+000	-1.0004594E+002	1.3620333E-002	7.4325181E-003	1.5516307E-002	2.8620981E+001	4.756545342895857E-007
7.0794981E+005	5.9819023E+001	2.8088650E+001	6.6085457E+001	-2.5152895E+001	3.536494114639936E+000	-1.8133141E-001	2.7353915E-003	8.0036260E-003	1.4458948E-003	1.000000000000000E+000	11	5.2571744E-003	7.9551151E-005	2.086854803248166E-006	0.0000000E+000	-1.0004594E+002	1.3697065E-002	6.4316005E-003	1.5131922E-002	2.5152895E+001	4.588415743617385E-007
6.3095681E+005	6.2706993E+001	2.5907917E+001	6.7848267E+001	-2.2448374E+001	4.132475076272385E+000	-1.8093768E-001	2.7796235E-003	9.7361673E-003	1.4196311E-003	1.000000000000000E+000	11	7.4502868E-003	1.0980806E-004	2.485582193244126E-006	0.0000000E+000	-1.0006999E+002	1.3621924E-002	5.6280117E-003	1.4738770E-002	2.2448374E+001	3.987273899959594E-007
5.6234225E+005	6.5179924E+001	2.4027557E+001	6.9467590E+001	-2.0235617E+001	4.728474491246743E+000	-1.8059495E-001	2.8417739E-003	1.1779037E-002	1.4091738E-003	1.000000000000000E+000	11	1.0185549E-002	1.4662303E-004	2.708562823955920E-006	0.0000000E+000	-1.0007802E+002	1.3506705E-002	4.9790344E-003	1.4395203E-002	2.0235617E+001	2.229806307117949E-007
5.0120619E+005	6.7333221E+001	2.2260164E+001	7.0917397E+001	-1.8293734E+001	5.325475559598999E+000	-1.8031472E-001	2.6982548E-003	1.4265118E-002	1.4054860E-003	1.000000000000000E+000	11	1.3478839E-002	1.9006392E-004	3.069902089809249E-006	0.0000000E+000	-1.0006197E+002	1.3388249E-002	4.4261157E-003	1.4100912E-002	1.8293734E+001	3.613392658533284E-007
4.4668572E+005	6.9142387E+001	2.0606094E+001	7.2147629E+001	-1.6595322E+001	5.921487267914927E+000	-1.8006082E-001	2.7467813E-003	1.7291090E-002	1.4104887E-003	1.000000000000000E+000	11	1.7339153E-002	2.4032879E-004	3.485549014732695E-006	0.0000000E+000	-1.0006999E+002	1.3283124E-002	3.9586904E-003	1.3860470E-002	1.6595322E+001	4.156469249234458E-007
3.9810347E+005	7.0736031E+001	1.8983515E+001	7.3239059E+001	-1.5022559E+001	6.517481162882177E+000	-1.7990160E-001	2.7014301E-003	2.1059476E-002	1.4148660E-003	1.000000000000000E+000	11	2.1803267E-002	2.9770000E-004	3.949398189142408E-006	0.0000000E+000	-1.0007802E+002	1.3187278E-002	3.5390861E-003	1.3653916E-002	1.5022559E+001	4.638491744097136E-007
3.5480997E+005	7.2049751E+001	1.7450302E+001	7.4132851E+001	-1.3614749E+001	7.113484017871087E+000	-1.7979451E-001	2.6542149E-003	2.5705224E-002	1.4243145E-003	1.000000000000000E+000	11	2.6906805E-002	3.6295387E-004	4.077551233346134E-006	0.0000000E+000	-1.0009406E+002	1.3110253E-002	3.1752766E-003	1.3489297E-002	1.3614749E+001	1.281530442037261E-007
3.1622997E+005	7.3118187E+001	1.5973335E+001	7.4842613E+001	-1.2323182E+001	7.708493699465180E+000	-1.7972414E-001	2.7434269E-003	3.1508047E-002	1.4352079E-003	1.000000000000000E+000	11	3.2722548E-002	4.3721814E-004	4.626482006964377E-006	0.0000000E+000	-1.0008604E+002	1.3053517E-002	2.8516599E-003	1.3361372E-002	1.2323182E+001	5.489307736182431E-007
2.8183453E+005	7.3966286E+001	1.4570354E+001	7.5387711E+001	-1.1143812E+001	8.303479007707210E+000	-1.7969422E-001	2.6465652E-003	3.8757503E-002	1.4477546E-003	1.000000000000000E+000	11	3.9307855E-002	5.2140933E-004	4.152788952015625E-006	0.0000000E+000	-1.0013416E+002	1.3014656E-002	2.5637106E-003	1.3264761E-002	1.1143812E+001	-4.736930549487521E-007
2.5118764E+005	7.4638527E+001	1.3274808E+001	7.5809830E+001	-1.0084867E+001	8.899479329324095E+000	-1.7966206E-001	2.5625832E-003	4.7730241E-002	1.4635214E-003	1.000000000000000E+000	11	4.6715874E-002	6.1622448E-004	4.818821513035801E-006	0.0000000E+000	-1.0007802E+002	1.2987095E-002	2.3098150E-003	1.3190902E-002	1.0084867E+001	6.660325610201754E-007
2.2387173E+005	7.5142532E+001	1.2105103E+001	7.6111328E+001	-9.1514521E+000	9.494472584250616E+000	-1.7961249E-001	2.6333234E-003	5.8728967E-002	1.4855620E-003	1.000000000000000E+000	11	5.4961890E-002	7.2212494E-004	3.947971023612708E-006	0.0000000E+000	-1.0011009E+002	1.2971412E-002	2.0896327E-003	1.3138649E-002	9.1514521E+000	-8.708504894230928E-007
1.9954350E+005	7.5522461E+001	1.1077598E+001	7.6330566E+001	-8.3446121E+000	1.009149677262758E+001	-1.7957914E-001	2.8005480E-003	7.2000742E-002	1.5164608E-003	1.000000000000000E+000	11	6.4019300E-002	8.3871122E-004	4.608745404925786E-006	0.0000000E+000	-1.0004594E+002	1.2962214E-002	1.9012912E-003	1.3100912E-002	8.3446121E+000	6.607743813130784E-007
1.7783180E+005	7.5818329E+001	1.0189423E+001	7.6499954E+001	-7.6542668E+000	1.068649168088450E+001	-1.7955662E-001	2.7251500E-003	8.7833695E-002	1.5582528E-003	1.000000000000000E+000	11	7.3877044E-002	9.6571358E-004	6.687152099688926E-006	0.0000000E+000	-1.0006999E+002	1.2955430E-002	1.7411141E-003	1.3071903E-002	7.6542668E+000	2.078406694763140E-006
1.5848613E+005	7.6062553E+001	9.4322481E+000	7.6645149E+001	-7.0689597E+000	1.128247637583991E+001	-1.7951818E-001	2.8194007E-003	1.0646667E-001	1.6124073E-003	1.000000000000000E+000	11	8.4483735E-002	1.1022711E-003	6.506296503554849E-006	0.0000000E+000	-1.0010207E+002	1.2947965E-002	1.6056314E-003	1.3047140E-002	7.0689597E+000	-1.808555961340774E-007
1.4125594E+005	7.6261070E+001	8.7861900E+000	7.6765541E+001	-6.5721841E+000	1.187848877752549E+001	-1.7952590E-001	2.6271746E-003	1.2823685E-001	1.6798921E-003	1.000000000000000E+000	11	9.5870703E-002	1.2488768E-003	7.563773401029822E-006	0.0000000E+000	-1.0009406E+002	1.2941073E-002	1.4909668E-003	1.3026678E-002	6.5721841E+000	1.057476897474974E-006
1.2590930E+005	7.6433578E+001	8.2360344E+000	7.6876030E+001	-6.1501279E+000	1.247549307250301E+001	-1.7949238E-001	2.8894015E-003	1.5347731E-001	1.7615646E-003	1.000000000000000E+000	11	1.0816198E-001	1.4069662E-003	9.031258596747648E-006	0.0000000E+000	-1.0003791E+002	1.2933089E-002	1.3935940E-003	1.3007956E-002	6.1501279E+000	1.467485195717826E-006
1.1220494E+005	7.6594650E+001	7.7792926E+000	7.6988686E+001	-5.7993274E+000	1.293549056103802E+001	-1.7947647E-001	2.7227444E-003	1.8233417E-001	1.8616347E-003	1.000000000000000E+000	11	1.2154103E-001	1.5786869E-003	1.015213914755603E-005	0.0000000E+000	-1.0003791E+002	1.2922443E-002	1.3124606E-003	1.2988921E-002	5.7993274E+000	1.120880550808377E-006
1.0000371E+005	7.6733849E+001	7.4083905E+000	7.7090645E+001	-5.5146198E+000	1.339548375623417E+001	-1.7949174E-001	2.6779571E-003	2.1482268E-001	1.9839215E-003	1.000000000000000E+000	11	1.3601190E-001	1.7643113E-003	9.314073914403302E-006	0.0000000E+000	-1.0007802E+002	1.2911706E-002	1.2465811E-003	1.2971743E-002	5.5146198E+000	-8.380652331527226E-007
8.9129305E+004	7.6851204E+001	7.1148901E+000	7.7179848E+001	-5.2893701E+000	1.399249221125501E+001	-1.7940526E-001	2.8024400E-003	2.5097555E-001	2.1328484E-003	1.000000000000000E+000	11	1.3025030E-001	1.6876207E-003	1.391330583648394E-005	0.0000000E+000	-1.0009406E+002	1.2901577E-002	1.1944290E-003	1.2956750E-002	5.2893701E+000	4.599231922080637E-006
7.9433273E+004	7.6945091E+001	6.9015684E+000	7.7253990E+001	-5.1254134E+000	1.458847655952559E+001	-1.7934953E-001	2.9069530E-003	2.9031527E-001	2.3169871E-003	1.000000000000000E+000	11	1.2957832E-001	1.6773026E-003	1.574648356643350E-005	0.0000000E+000	-1.0004594E+002	1.2892558E-002	1.1563944E-003	1.2944316E-002	5.1254134E+000	1.833177729949563E-006
7.0794977E+004	7.7026100E+001	6.7613940E+000	7.7322289E+001	-5.0165968E+000	1.518447573450976E+001	-1.7932855E-001	2.7904951E-003	3.3249217E-001	2.5424038E-003	1.000000000000000E+000	11	1.2956002E-001	1.6755845E-003	1.432810712513876E-005	0.0000000E+000	-1.0007802E+002	1.2883341E-002	1.1309069E-003	1.2932882E-002	5.0165968E+000	-1.418376441294742E-006
6.3093828E+004	7.7098572E+001	6.6988754E+000	7.7389046E+001	-4.9657960E+000	1.578048722949461E+001	-1.7930426E-001	2.8143830E-003	3.7655756E-001	2.8214748E-003	1.000000000000000E+000	11	1.2961470E-001	1.6748455E-003	1.564347994240881E-005	0.0000000E+000	-1.0006999E+002	1.2873224E-002	1.1185178E-003	1.2921725E-002	4.9657960E+000	1.315372817270045E-006
5.6237012E+004	7.7154472E+001	6.7100563E+000	7.7445709E+001	-4.9704566E+000	1.637747789788409E+001	-1.7928408E-001	2.7130430E-003	4.2176619E-001	3.1661345E-003	1.000000000000000E+000	11	1.2944648E-001	1.6714480E-003	1.681305691328210E-005	0.0000000E+000	-1.0007802E+002	1.2863715E-002	1.1187459E-003	1.2912272E-002	4.9704566E+000	1.169576970873295E-006
5.0122477E+004	7.7213142E+001	6.8014097E+000	7.7512115E+001	-5.0339727E+000	1.697348725949996E+001	-1.7925918E-001	2.7735094E-003	4.6686214E-001	3.5945734E-003	1.000000000000000E+000	11	1.2946686E-001	1.6702791E-003	1.614471937644218E-005	0.0000000E+000	-1.0008604E+002	1.2851448E-002	1.1320348E-003	1.2901209E-002	5.0339727E+000	-6.683375368399236E-007
4.4666715E+004	7.7263657E+001	6.9753594E+000	7.7577888E+001	-5.1586752E+000	1.756847443440347E+001	-1.7922734E-001	2.9147922E-003	5.1082188E-001	4.1297791E-003	1.000000000000000E+000	11	1.2932196E-001	1.6669951E-003	1.951946138371972E-005	0.0000000E+000	-1.0009406E+002	1.2838059E-002	1.1590193E-003	1.2890271E-002	5.1586752E+000	3.374742007277543E-006
3.9814063E+004	7.7321251E+001	7.2279539E+000	7.7658348E+001	-5.3404627E+000	1.802847810959793E+001	-1.7922522E-001	2.9398035E-003	5.5305493E-001	4.7909622E-003	1.000000000000000E+000	11	1.4071894E-001	1.8120259E-003	2.126128135184344E-005	0.0000000E+000	-9.9989792E+001	1.2821020E-002	1.1985028E-003	1.2876916E-002	5.3404627E+000	1.741819968123716E-006
3.5480996E+004	7.7372849E+001	7.5677137E+000	7.7742058E+001	-5.5862398E+000	1.862447200456518E+001	-1.7920750E-001	2.9394266E-003	5.9273368E-001	5.6166449E-003	1.000000000000000E+000	11	1.3041213E-001	1.6774979E-003	2.015307287512244E-005	0.0000000E+000	-1.0005396E+002	1.2801961E-002	1.2521392E-003	1.2863050E-002	5.5862398E+000	-1.108208476721001E-006
3.1621143E+004	7.7434364E+001	8.0007801E+000	7.7846603E+001	-5.8990607E+000	1.908447434645495E+001	-1.7920479E-001	2.9638791E-003	6.2908632E-001	6.6450089E-003	1.000000000000000E+000	11	1.4034532E-001	1.8028446E-003	2.197206016540359E-005	0.0000000E+000	-1.0007802E+002	1.2777751E-002	1.3202404E-003	1.2845776E-002	5.8990607E+000	1.818987290281157E-006
2.8188096E+004	7.7490944E+001	8.5252361E+000	7.7958488E+001	-6.2781987E+000	1.968048848139006E+001	-1.7918327E-001	2.8895964E-003	6.6228968E-001	7.9201609E-003	1.000000000000000E+000	11	1.3019384E-001	1.6700407E-003	2.457479070162582E-005	0.0000000E+000	-1.0006999E+002	1.2750410E-002	1.4027478E-003	1.2827340E-002	6.2781987E+000	2.602730536222224E-006
2.5116910E+004	7.7567360E+001	9.1462297E+000	7.8104729E+001	-6.7248874E+000	2.014048007657402E+001	-1.7919649E-001	2.8582432E-003	6.9280630E-001	9.5003881E-003	1.000000000000000E+000	11	1.3836780E-001	1.7715675E-003	2.620638261659122E-005	0.0000000E+000	-1.0007802E+002	1.2715233E-002	1.4992962E-003	1.2803322E-002	6.7248874E+000	1.631591914965408E-006
2.2389027E+004	7.7640778E+001	9.8820896E+000	7.8267143E+001	-7.2535839E+000	2.073647829159745E+001	-1.7917193E-001	2.8701855E-003	7.1934319E-001	1.1467658E-002	1.000000000000000E+000	11	1.2988950E-001	1.6595662E-003	2.481014030841470E-005	0.0000000E+000	-1.0005396E+002	1.2674502E-002	1.6132060E-003	1.2776754E-002	7.2535839E+000	-1.396242308176523E-006
1.9948783E+004	7.7736923E+001	1.0725256E+001	7.8473312E+001	-7.8554263E+000	2.119647455340601E+001	-1.7917413E-001	2.9314037E-003	7.4386829E-001	1.3895284E-002	1.000000000000000E+000	11	1.3622418E-001	1.7359300E-003	2.418107114208396E-005	0.0000000E+000	-1.0008604E+002	1.2623605E-002	1.7416613E-003	1.2743186E-002	7.8554263E+000	-6.290691663307374E-007
1.7786895E+004	7.7830322E+001	1.1697166E+001	7.8704399E+001	-8.5470495E+000	2.179247746171313E+001	-1.7916559E-001	2.8718649E-003	7.6496112E-001	1.6896730E-002	1.000000000000000E+000	11	1.2933454E-001	1.6432949E-003	2.495961457756089E-005	0.0000000E+000	-1.0010207E+002	1.2564662E-002	1.8883508E-003	1.2705770E-002	8.5470495E+000	7.785434354769282E-007
1.5847686E+004	7.7954056E+001	1.2808398E+001	7.8999306E+001	-9.3307276E+000	2.225249497688492E+001	-1.7916030E-001	2.9588374E-003	7.8407836E-001	2.0611165E-002	1.000000000000000E+000	11	1.3397099E-001	1.6958503E-003	2.432967414499985E-005	0.0000000E+000	-1.0011009E+002	1.2490856E-002	2.0523351E-003	1.2658339E-002	9.3307276E+000	-6.299404325610456E-007
1.4121879E+004	7.8096634E+001	1.4063184E+001	7.9352737E+001	-1.0208088E+001	2.271247697211220E+001	-1.7916697E-001	2.8955715E-003	8.0139011E-001	2.5170246E-002	1.000000000000000E+000	11	1.3799399E-001	1.7389947E-003	2.583195770645721E-005	0.0000000E+000	-1.0006999E+002	1.2402478E-002	2.2333656E-003	1.2601960E-002	1.0208088E+001	1.502283561457362E-006
1.2590932E+004	7.8251762E+001	1.5477643E+001	7.9767761E+001	-1.1188287E+001	2.330848265372333E+001	-1.7915598E-001	2.8834357E-003	8.1669033E-001	3.0747676E-002	1.000000000000000E+000	11	1.2937930E-001	1.6219498E-003	2.810829205325960E-005	0.0000000E+000	-1.0007802E+002	1.2298136E-002	2.4324839E-003	1.2536393E-002	1.1188287E+001	2.276334346802390E-006
1.1217711E+004	7.8444138E+001	1.7081324E+001	8.0282341E+001	-1.2284475E+001	2.376748184885946E+001	-1.7914945E-001	2.9078841E-003	8.3060467E-001	3.7600826E-002	1.000000000000000E+000	11	1.3201502E-001	1.6443842E-003	2.936595601624706E-005	0.0000000E+000	-1.0006999E+002	1.2170836E-002	2.6502172E-003	1.2456039E-002	1.2284475E+001	1.257663962987457E-006
1.0002229E+004	7.8666786E+001	1.8860680E+001	8.0896156E+001	-1.3482408E+001	2.422747651071404E+001	-1.7915088E-001	2.9069530E-003	8.4365708E-001	4.5859031E-002	1.000000000000000E+000	11	1.3415593E-001	1.6583721E-003	3.121277344457728E-005	0.0000000E+000	-1.0006197E+002	1.2020862E-002	2.8820501E-003	1.2361526E-002	1.3482408E+001	1.846817428330220E-006
8.9149297E+003	7.8926003E+001	2.0869429E+001	8.1638512E+001	-1.4811047E+001	2.470990565366810E+001	-1.7913641E-001	3.0314359E-003	8.5544407E-001	5.5901390E-002	1.000000000000000E+000	11	1.3590580E-001	1.6647265E-003	3.161227922482067E-005	0.0000000E+000	-1.0011009E+002	1.1842133E-002	3.1312690E-003	1.2249121E-002	1.4811047E+001	3.995057802433919E-007
7.9439976E+003	7.9221420E+001	2.3107422E+001	8.2522644E+001	-1.6260986E+001	2.523600047864602E+001	-1.7912637E-001	3.1049696E-003	8.6702085E-001	6.7980796E-002	1.000000000000000E+000	11	1.3726881E-001	1.6634079E-003	3.223193708142369E-005	0.0000000E+000	-1.0012614E+002	1.1633124E-002	3.3931667E-003	1.2117886E-002	1.6260986E+001	6.196578566030229E-007
7.0822334E+003	7.9563011E+001	2.5602154E+001	8.3580757E+001	-1.7837378E+001	2.581287149272976E+001	-1.7911650E-001	3.1773809E-003	8.7775517E-001	8.2359523E-002	1.000000000000000E+000	11	1.3831508E-001	1.6548675E-003	3.419101748389140E-005	0.0000000E+000	-1.0009406E+002	1.1389341E-002	3.6649150E-003	1.1964477E-002	1.7837378E+001	1.959080402467710E-006
6.3077344E+003	7.9958229E+001	2.8398996E+001	8.4851761E+001	-1.9553659E+001	2.644655288275681E+001	-1.7910241E-001	3.0978767E-003	8.8847202E-001	9.9524044E-002	1.000000000000000E+000	11	1.3909936E-001	1.6393220E-003	3.330519355541522E-005	0.0000000E+000	-1.0009406E+002	1.1105585E-002	3.9444030E-003	1.1785259E-002	1.9553659E+001	-8.858239284761821E-007
5.6210552E+003	8.0414085E+001	3.1497494E+001	8.6362709E+001	-2.1389843E+001	2.714726307606907E+001	-1.7909953E-001	3.0965698E-003	8.9893079E-001	1.1957097E-001	1.000000000000000E+000	11	1.3964437E-001	1.6169521E-003	3.311544036132465E-005	0.0000000E+000	-1.0006197E+002	1.0781512E-002	4.2230235E-003	1.1579072E-002	2.1389843E+001	-1.897531940905738E-007
5.0116035E+003	8.0939529E+001	3.4922855E+001	8.8152214E+001	-2.3338675E+001	2.790768255223520E+001	-1.7910889E-001	3.0165028E-003	9.0935552E-001	1.4272062E-001	1.000000000000000E+000	11	1.3998941E-001	1.5880419E-003	3.267027632875316E-005	0.0000000E+000	-1.0006197E+002	1.0415838E-002	4.4941055E-003	1.1344015E-002	2.3338675E+001	-4.451640325714817E-007
4.4664292E+003	8.1542892E+001	3.8731693E+001	9.0273956E+001	-2.5407042E+001	2.866766496166383E+001	-1.7909466E-001	3.1150435E-003	9.2001134E-001	1.6935624E-001	1.000000000000000E+000	11	1.4017272E-001	1.5527481E-003	3.198863017746610E-005	0.0000000E+000	-1.0007802E+002	1.0006015E-002	4.7527123E-003	1.1077392E-002	2.5407042E+001	-6.816461512870669E-007
3.9812742E+003	8.2237823E+001	4.2941895E+001	9.2774277E+001	-2.7572086E+001	2.942768697109568E+001	-1.7909166E-001	3.1432230E-003	9.3092954E-001	1.9944543E-001	1.000000000000000E+000	11	1.4022148E-001	1.5114263E-003	3.334018161680756E-005	0.0000000E+000	-1.0004594E+002	9.5546870E-003	4.9891439E-003	1.0778850E-002	2.7572086E+001	1.351551439341463E-006
