EC-Lab ASCII FILE
Nb header lines : 75                          

Potentio Electrochemical Impedance Spectroscopy

Run on channel : 1 (SN 20909)
User : 
CE vs. WE compliance from -10 V to 10 V
Electrode connection : standard
Ewe ctrl range : min = -10.00 V, max = 10.00 V
Safety Limits :
	Do not start on E overload
Acquisition started on : 01/22/2020 09:43:49
Technique started on : 01/22/2020 09:43:50
Saved on :
	File : DE_49_9_30.mpr
	Directory : P:\Chemistry\Data\VMP3\Kyler\DOE\DE_49\30C\
	Host : 10.0.4.99
Device : VMP3 (SN 0183)
Address : USB
EC-Lab for windows v11.33 (software)
Internet server v11.32 (firmware)
Command interpretor v11.33 (firmware)
Electrode material : 
Initial state : 
Electrolyte : 
Comments : 
Electrode surface area : 0.001 cm²
Characteristic mass : 0.001 g
Equivalent Weight : 0.000 g/eq.
Density : 0.000 g/cm3
Record Analogic IN 1
Cycle Definition : Charge/Discharge alternance
External device configuration :
   device type : Thermostat
   device name : Other
   Analog OUT : 
      mode : E/V
      unit : T/°C
      max : 400.000 at 5.000 V
      min : -100.000 at 0.000 V
      current : 0.000
   Analog IN 1 : 
      unit : T/°C
      max : 400.000 at 5.000 V
      min : -100.000 at 0.000 V
Mode                Single sine         
E (V)               0.0000              
vs.                 Eoc                 
tE (h:m:s)          0:00:0.0000         
record              0                   
dI                  1.000               
unit dI             mA                  
dt (s)              0.000               
fi                  1.000               
unit fi             MHz                 
ff                  1.000               
unit ff             Hz                  
Nd                  20                  
Points              per decade          
spacing             Logarithmic         
Va (mV)             128.0               
pw                  0.50                
Na                  3                   
corr                0                   
E range min (V)     -10.000             
E range max (V)     10.000              
I Range             Auto                
Bandwidth           5                   
nc cycles           0                   
goto Ns'            0                   
nr cycles           0                   
inc. cycle          1                   

freq/Hz	Re(Z)/Ohm	-Im(Z)/Ohm	|Z|/Ohm	Phase(Z)/deg	time/s	<Ewe>/V	<I>/mA	Cs/µF	Cp/µF	cycle number	I Range	|Ewe|/V	|I|/A	(Q-Qo)/mA.h	Analog OUT/V	Analog IN 1/V	Re(Y)/Ohm-1	Im(Y)/Ohm-1	|Y|/Ohm-1	Phase(Y)/deg	dq/mA.h	
1.0000186E+006	3.2982964E+001	2.0264922E+002	2.0531581E+002	-8.0755661E+001	1.951484519318910E+000	-1.8069475E-003	3.1631503E-003	7.8535703E-004	7.6508941E-004	1.000000000000000E+000	11	5.7539376E-003	2.8024815E-005	8.524872779558387E-007	0.0000000E+000	-1.0006999E+002	7.8242901E-004	4.8072883E-003	4.8705456E-003	8.0755661E+001	8.524872779558387E-007
8.9124669E+005	3.9379498E+001	2.2246672E+002	2.2592519E+002	-7.9961884E+001	2.547496947663603E+000	-1.2730832E-003	3.1784549E-003	8.0270716E-004	7.7831961E-004	1.000000000000000E+000	11	9.2394548E-003	4.0896080E-005	1.272279279180819E-006	0.0000000E+000	-1.0011009E+002	7.7150890E-004	4.3584872E-003	4.4262442E-003	7.9961884E+001	4.197920012249800E-007
7.9433269E+005	4.6115387E+001	2.4477170E+002	2.4907793E+002	-7.9330444E+001	3.143488869274734E+000	-8.2833582E-004	3.2812895E-003	8.1857125E-004	7.9051190E-004	1.000000000000000E+000	11	1.4092888E-002	5.6580237E-005	1.905502005450722E-006	0.0000000E+000	-1.0006197E+002	7.4331946E-004	3.9453972E-003	4.0148078E-003	7.9330444E+001	6.332227262699032E-007
7.0794981E+005	5.2711895E+001	2.7031552E+002	2.7540701E+002	-7.8965714E+001	3.739490364241647E+000	-4.1760199E-004	3.2176480E-003	8.3166163E-004	8.0119574E-004	1.000000000000000E+000	11	2.0291153E-002	7.3676965E-005	2.409300157298023E-006	0.0000000E+000	-1.0004594E+002	6.9495826E-004	3.5638630E-003	3.6309897E-003	7.8965714E+001	5.037981518473012E-007
6.3095681E+005	5.9499557E+001	3.0014435E+002	3.0598502E+002	-7.8787254E+001	4.334481032536132E+000	-2.6597310E-005	3.2661732E-003	8.4040832E-004	8.0863095E-004	1.000000000000000E+000	11	2.7698243E-002	9.0521564E-005	2.955232192684788E-006	0.0000000E+000	-1.0007802E+002	6.3549698E-004	3.2057515E-003	3.2681338E-003	7.8787254E+001	5.459320353867650E-007
5.6234225E+005	6.6441391E+001	3.3309375E+002	3.3965558E+002	-7.8719406E+001	4.930485780845629E+000	3.3253868E-004	3.2503100E-003	8.4967521E-004	8.1716245E-004	1.000000000000000E+000	11	3.6040947E-002	1.0611027E-004	3.515818285790576E-006	0.0000000E+000	-1.0008604E+002	5.7591870E-004	2.8872807E-003	2.9441589E-003	7.8719406E+001	5.605860931057881E-007
5.0120619E+005	7.3989532E+001	3.6975864E+002	3.7708871E+002	-7.8684433E+001	5.527496689202962E+000	6.3517195E-004	3.2499365E-003	8.5878692E-004	8.2572416E-004	1.000000000000000E+000	11	4.5215014E-002	1.1990551E-004	4.317677587117537E-006	0.0000000E+000	-1.0007802E+002	5.2033528E-004	2.6003467E-003	2.6518959E-003	7.8684433E+001	8.018593013269610E-007
4.4668572E+005	8.2182106E+001	4.1015189E+002	4.1830429E+002	-7.8669685E+001	6.123492584127234E+000	8.8225375E-004	3.2337005E-003	8.6870702E-004	8.3517621E-004	1.000000000000000E+000	11	5.5153970E-002	1.3185131E-004	4.578754539025087E-006	0.0000000E+000	-1.0009406E+002	4.6966993E-004	2.3440134E-003	2.3906042E-003	7.8669685E+001	2.610769519075499E-007
3.9810347E+005	9.1270988E+001	4.5475787E+002	4.6382660E+002	-7.8651375E+001	6.719493332464481E+000	1.0393050E-003	3.2626272E-003	8.7911153E-004	8.4507081E-004	1.000000000000000E+000	11	6.5883636E-002	1.4204367E-004	5.220349718504521E-006	0.0000000E+000	-1.0011009E+002	4.2424971E-004	2.1138245E-003	2.1559782E-003	7.8651375E+001	6.415951794794337E-007
3.5480997E+005	1.0166394E+002	5.0439401E+002	5.1453754E+002	-7.8604340E+001	7.315495307411766E+000	1.1472568E-003	3.1820035E-003	8.8931253E-004	8.5459457E-004	1.000000000000000E+000	11	7.7551745E-002	1.5072126E-004	5.847758384967973E-006	0.0000000E+000	-1.0004594E+002	3.8400132E-004	1.9051790E-003	1.9434928E-003	7.8604340E+001	6.274086664634524E-007
3.1622997E+005	1.5249118E+002	5.9063654E+002	6.1000415E+002	-7.5523445E+001	8.213472203438869E+000	1.1569152E-003	1.2548047E-003	8.5211225E-004	7.9886214E-004	1.000000000000000E+000	12	3.8637161E-002	6.3339176E-005	6.115347585207524E-006	0.0000000E+000	-1.0011009E+002	4.0980676E-004	1.5872843E-003	1.6393331E-003	7.5523445E+001	2.675892002395506E-007
2.8183453E+005	1.6626212E+002	6.5065869E+002	6.7156519E+002	-7.5666000E+001	8.808489565009950E+000	1.1985183E-003	1.2290862E-003	8.6790603E-004	8.1470952E-004	1.000000000000000E+000	12	4.7637466E-002	7.0934984E-005	6.327336708055049E-006	0.0000000E+000	-1.0006999E+002	3.6865220E-004	1.4427028E-003	1.4890587E-003	7.5666000E+001	2.119891228475250E-007
2.5118764E+005	1.8148227E+002	7.1696069E+002	7.3957318E+002	-7.5795242E+001	9.404488739994122E+000	1.2365410E-003	1.2358987E-003	8.8374410E-004	8.3052920E-004	1.000000000000000E+000	12	5.8524758E-002	7.9133155E-005	6.493993487027587E-006	0.0000000E+000	-1.0012614E+002	3.3179662E-004	1.3107898E-003	1.3521313E-003	7.5795242E+001	1.666567789725380E-007
2.2387173E+005	1.9800459E+002	7.9001532E+002	8.1445074E+002	-7.5929581E+001	1.000048348828568E+001	1.2461267E-003	1.2394263E-003	8.9988159E-004	8.4669446E-004	1.000000000000000E+000	12	7.1613826E-002	8.7928980E-005	6.842335031749422E-006	0.0000000E+000	-1.0006197E+002	2.9850088E-004	1.1909838E-003	1.2278213E-003	7.5929581E+001	3.483415447218352E-007
1.9954350E+005	2.1594212E+002	8.7059515E+002	8.9697656E+002	-7.6069519E+001	1.059748530332581E+001	1.3025549E-003	1.2294973E-003	9.1614941E-004	8.6305133E-004	1.000000000000000E+000	12	8.7318063E-002	9.7347096E-005	6.825878150740917E-006	0.0000000E+000	-1.0006999E+002	2.6839544E-004	1.0820668E-003	1.1148563E-003	7.6069519E+001	-1.645688100850542E-008
1.7783180E+005	2.3569022E+002	9.5960077E+002	9.8812122E+002	-7.6200584E+001	1.119247178491787E+001	1.3353565E-003	1.2503449E-003	9.3265303E-004	8.7959116E-004	1.000000000000000E+000	12	1.0609236E-001	1.0736776E-004	6.840539971131458E-006	0.0000000E+000	-1.0006197E+002	2.4139098E-004	9.8281133E-004	1.0120216E-003	7.6200584E+001	1.466182039054152E-008
1.5848613E+005	2.5696524E+002	1.0576332E+003	1.0884021E+003	-7.6343880E+001	1.165147516669822E+001	1.3514129E-003	1.2631299E-003	9.4949745E-004	8.9657208E-004	1.000000000000000E+000	12	1.2829857E-001	1.1787791E-004	6.936581269236033E-006	0.0000000E+000	-1.0007802E+002	2.1691801E-004	8.9280441E-004	9.1877807E-004	7.6343880E+001	9.604129810457480E-008
1.4125594E+005	2.7964642E+002	1.1664016E+003	1.1994561E+003	-7.6517738E+001	1.224649207500624E+001	1.4384603E-003	1.2582024E-003	9.6597371E-004	9.1346697E-004	1.000000000000000E+000	12	1.3002263E-001	1.0840133E-004	7.231565252131582E-006	0.0000000E+000	-1.0002989E+002	1.9437504E-004	8.1073592E-004	8.3371124E-004	7.6517738E+001	2.949839828955487E-007
1.2590930E+005	3.0450967E+002	1.2864448E+003	1.3219934E+003	-7.6682831E+001	1.284348010332906E+001	1.4830469E-003	1.2620285E-003	9.8258734E-004	9.3045406E-004	1.000000000000000E+000	12	1.3075560E-001	9.8907905E-005	7.358478218141246E-006	0.0000000E+000	-1.0010207E+002	1.7423790E-004	7.3609286E-004	7.5643341E-004	7.6682831E+001	1.269129660096649E-007
1.1220494E+005	3.3121301E+002	1.4196184E+003	1.4577443E+003	-7.6867172E+001	1.343948799828650E+001	1.5758005E-003	1.2379892E-003	9.9916337E-004	9.4758265E-004	1.000000000000000E+000	12	1.3079596E-001	8.9724897E-005	7.641941632858006E-006	0.0000000E+000	-1.0006197E+002	1.5586363E-004	6.6804991E-004	6.8599137E-004	7.6867172E+001	2.834634147167597E-007
1.0000371E+005	3.6005130E+002	1.5668713E+003	1.6077073E+003	-7.7058662E+001	1.403448266655323E+001	1.5859822E-003	1.2233565E-003	1.0157122E-003	9.6476910E-004	1.000000000000000E+000	12	1.3060257E-001	8.1235288E-005	7.900485281256705E-006	0.0000000E+000	-1.0006197E+002	1.3929982E-004	6.0620485E-004	6.2200380E-004	7.7058662E+001	2.585436483986985E-007
8.9129305E+004	3.9136011E+002	1.7300447E+003	1.7737579E+003	-7.7253433E+001	1.462949666814529E+001	1.6295617E-003	1.2254841E-003	1.0321487E-003	9.8190224E-004	1.000000000000000E+000	12	1.3025011E-001	7.3431729E-005	7.918031631398207E-006	0.0000000E+000	-1.0013416E+002	1.2439070E-004	5.4988085E-004	5.6377478E-004	7.7253433E+001	1.754635014150283E-008
7.9433273E+004	4.2552728E+002	1.9113943E+003	1.9581884E+003	-7.7449112E+001	1.522549741648254E+001	1.6231096E-003	1.2304295E-003	1.0482562E-003	9.9875510E-004	1.000000000000000E+000	12	1.3002554E-001	6.6400935E-005	8.144428508948042E-006	0.0000000E+000	-1.0006999E+002	1.1097331E-004	4.9847271E-004	5.1067612E-004	7.7449112E+001	2.263968775498341E-007
7.0794977E+004	4.6207141E+002	2.1124636E+003	2.1624089E+003	-7.7661690E+001	1.582048917809152E+001	1.6488807E-003	1.2324449E-003	1.0642126E-003	1.0156201E-003	1.000000000000000E+000	12	1.2963305E-001	5.9948448E-005	8.328734968016913E-006	0.0000000E+000	-1.0006999E+002	9.8817400E-005	4.5176601E-004	4.6244721E-004	7.7661690E+001	1.843064590688713E-007
6.3093828E+004	5.0267130E+002	2.3356465E+003	2.3891260E+003	-7.7854225E+001	1.641647424639086E+001	1.6568805E-003	1.2093203E-003	1.0800059E-003	1.0321962E-003	1.000000000000000E+000	12	1.2933844E-001	5.4136301E-005	8.496680951695301E-006	0.0000000E+000	-1.0006999E+002	8.8065543E-005	4.0919377E-004	4.1856311E-004	7.7854225E+001	1.679459836783880E-007
5.6237012E+004	5.4634521E+002	2.5837974E+003	2.6409282E+003	-7.8060646E+001	1.687647376154200E+001	1.6692071E-003	1.2245126E-003	1.0953160E-003	1.0484389E-003	1.000000000000000E+000	12	1.3884376E-001	5.2573847E-005	8.612642752625561E-006	0.0000000E+000	-1.0003791E+002	7.8334670E-005	3.7046336E-004	3.7865475E-004	7.8060646E+001	1.159618009302605E-007
5.0122477E+004	5.9439996E+002	2.8583547E+003	2.9195039E+003	-7.8252663E+001	1.747247317651636E+001	1.6804140E-003	1.1987750E-003	1.1108910E-003	1.0648430E-003	1.000000000000000E+000	12	1.2998897E-001	4.4524335E-005	8.906303404043228E-006	0.0000000E+000	-1.0006999E+002	6.9736590E-005	3.3534976E-004	3.4252394E-004	7.8252663E+001	2.936606514176668E-007
4.4666715E+004	6.4622510E+002	3.1640881E+003	3.2294055E+003	-7.8456810E+001	1.793147557167686E+001	1.6783628E-003	1.1888085E-003	1.1261274E-003	1.0810344E-003	1.000000000000000E+000	12	1.3533294E-001	4.1906456E-005	9.028090764398006E-006	0.0000000E+000	-1.0011009E+002	6.1963896E-005	3.0339148E-004	3.0965451E-004	7.8456810E+001	1.217873603547774E-007
3.9814063E+004	7.0598761E+002	3.5039297E+003	3.5743450E+003	-7.8608307E+001	1.839147436685744E+001	1.6720415E-003	1.2023398E-003	1.1408493E-003	1.0963421E-003	1.000000000000000E+000	12	1.3930939E-001	3.8974802E-005	9.176811462649260E-006	0.0000000E+000	-1.0007802E+002	5.5259137E-005	2.7426000E-004	2.7977154E-004	7.8608307E+001	1.487206982512548E-007
3.5480996E+004	7.6932379E+002	3.8829939E+003	3.9584719E+003	-7.8793320E+001	1.898649362180731E+001	1.6876118E-003	1.2222538E-003	1.1552012E-003	1.1115676E-003	1.000000000000000E+000	12	1.2935837E-001	3.2678865E-005	9.444384152298476E-006	0.0000000E+000	-1.0006999E+002	4.9096907E-005	2.4780584E-004	2.5262273E-004	7.8793320E+001	2.675726896492153E-007
3.1621143E+004	8.4139764E+002	4.3033237E+003	4.3848086E+003	-7.8936943E+001	1.944547436360153E+001	1.6847216E-003	1.1923166E-003	1.1696032E-003	1.1265366E-003	1.000000000000000E+000	12	1.3119578E-001	2.9920528E-005	9.618025306140074E-006	0.0000000E+000	-1.0006999E+002	4.3762280E-005	2.2382200E-004	2.2806013E-004	7.8936943E+001	1.736411538415984E-007
2.8188096E+004	1.1763234E+003	4.8306333E+003	4.9717959E+003	-7.6314087E+001	2.007249586001853E+001	1.6682370E-003	9.6703158E-004	1.1688272E-003	1.1033972E-003	1.000000000000000E+000	13	1.3030049E-001	2.6207932E-005	9.803936782964229E-006	0.0000000E+000	-1.0010207E+002	4.7588292E-005	1.9542381E-004	2.0113456E-004	7.6314087E+001	1.859114768241545E-007
2.5116910E+004	1.2685737E+003	5.3412026E+003	5.4897837E+003	-7.6639397E+001	2.066849586166791E+001	1.6790153E-003	9.6247729E-004	1.1863555E-003	1.1230072E-003	1.000000000000000E+000	13	1.3026300E-001	2.3728257E-005	9.983041728004386E-006	0.0000000E+000	-1.0002989E+002	4.2092546E-005	1.7722647E-004	1.8215654E-004	7.6639397E+001	1.791049450401571E-007
2.2389027E+004	1.3698462E+003	5.9073999E+003	6.0641450E+003	-7.6944618E+001	2.126448618332506E+001	1.6724326E-003	9.6344593E-004	1.2033405E-003	1.1419370E-003	1.000000000000000E+000	13	1.2939829E-001	2.1338257E-005	1.011243411348717E-005	0.0000000E+000	-1.0006999E+002	3.7250556E-005	1.6064131E-004	1.6490371E-004	7.6944618E+001	1.293923854827874E-007
1.9948783E+004	1.4846643E+003	6.5435669E+003	6.7098804E+003	-7.7216637E+001	2.172349457847304E+001	1.6822042E-003	9.6918707E-004	1.2192399E-003	1.1595479E-003	1.000000000000000E+000	13	1.3502552E-001	2.0123387E-005	1.022996531008291E-005	0.0000000E+000	-1.0011009E+002	3.2976048E-005	1.4533995E-004	1.4903395E-004	7.7216637E+001	1.175311965957405E-007
1.7786895E+004	1.6149229E+003	7.2467832E+003	7.4245435E+003	-7.7437096E+001	2.218349788032356E+001	1.6808989E-003	9.7620871E-004	1.2347378E-003	1.1763208E-003	1.000000000000000E+000	13	1.3568258E-001	1.8274872E-005	1.035845204915803E-005	0.0000000E+000	-1.0006197E+002	2.9296258E-005	1.3146368E-004	1.3468841E-004	7.7437096E+001	1.284867390751174E-007
1.5847686E+004	1.7607844E+003	8.0355737E+003	8.2262266E+003	-7.7640480E+001	2.264249755544006E+001	1.6847029E-003	9.7631139E-004	1.2497910E-003	1.1925314E-003	1.000000000000000E+000	13	1.3334599E-001	1.6209862E-005	1.046826711497837E-005	0.0000000E+000	-1.0006999E+002	2.6019858E-005	1.1874506E-004	1.2156242E-004	7.7640480E+001	1.098150658203346E-007
1.4121879E+004	1.9280763E+003	8.9109639E+003	9.1171680E+003	-7.7791046E+001	2.310149696390727E+001	1.6872017E-003	9.7274641E-004	1.2647450E-003	1.2081822E-003	1.000000000000000E+000	13	1.2975100E-001	1.4231503E-005	1.058066953863974E-005	0.0000000E+000	-1.0012614E+002	2.3195529E-005	1.0720246E-004	1.0968318E-004	7.7791046E+001	1.124024236613769E-007
1.2590932E+004	2.1195601E+003	9.8850723E+003	1.0109757E+004	-7.7897873E+001	2.356047554567340E+001	1.6752665E-003	9.7531459E-004	1.2787406E-003	1.2225333E-003	1.000000000000000E+000	13	1.2596786E-001	1.2460029E-005	1.070276992051908E-005	0.0000000E+000	-1.0006999E+002	2.0737873E-005	9.6716016E-005	9.8914345E-005	7.7897873E+001	1.221003818793376E-007
1.1217711E+004	2.3453721E+003	1.0969664E+004	1.1217589E+004	-7.7931564E+001	2.402048842087970E+001	1.6726370E-003	9.7021903E-004	1.2933695E-003	1.2368305E-003	1.000000000000000E+000	13	1.2246340E-001	1.0917088E-005	1.081984371986356E-005	0.0000000E+000	-1.0007802E+002	1.8638575E-005	8.7175467E-005	8.9145717E-005	7.7931564E+001	1.170737993444778E-007
1.0002229E+004	2.5982778E+003	1.2169087E+004	1.2443381E+004	-7.7947495E+001	2.447949654937838E+001	1.6798350E-003	9.7871141E-004	1.3075711E-003	1.2505599E-003	1.000000000000000E+000	13	1.1944384E-001	9.5989863E-006	1.093966039572696E-005	0.0000000E+000	-1.0009406E+002	1.6780647E-005	7.8592522E-005	8.0364014E-005	7.7947495E+001	1.198166758634016E-007
8.9149297E+003	2.8909431E+003	1.3511771E+004	1.3817580E+004	-7.7923233E+001	2.496191286563408E+001	1.6850190E-003	9.7489631E-004	1.3212650E-003	1.2634280E-003	1.000000000000000E+000	13	1.1689604E-001	8.4599505E-006	1.107519332749255E-005	0.0000000E+000	-1.0003791E+002	1.5141729E-005	7.0769856E-005	7.2371571E-005	7.7923233E+001	1.355329317655864E-007
7.9439976E+003	3.2569656E+003	1.5015742E+004	1.5364906E+004	-7.7761925E+001	2.564197761792457E+001	1.6864552E-003	9.6712256E-004	1.3342409E-003	1.2742892E-003	1.000000000000000E+000	13	1.2659213E-001	8.2390434E-006	1.125712003532079E-005	0.0000000E+000	-1.0008604E+002	1.3796001E-005	6.3604370E-005	6.5083375E-005	7.7761925E+001	1.819267078282478E-007
7.0822334E+003	3.6566821E+003	1.6644561E+004	1.7041500E+004	-7.7609398E+001	2.621885905865929E+001	1.6984082E-003	9.7391452E-004	1.3501362E-003	1.2879726E-003	1.000000000000000E+000	13	1.2472621E-001	7.3189694E-006	1.140792756937687E-005	0.0000000E+000	-1.0006197E+002	1.2591328E-005	5.7313471E-005	5.8680282E-005	7.7609398E+001	1.508075340560718E-007
6.3077344E+003	4.1430107E+003	1.8477340E+004	1.8936119E+004	-7.7362099E+001	2.685256466208375E+001	1.7207480E-003	9.8811078E-004	1.3655489E-003	1.3001822E-003	1.000000000000000E+000	13	1.2320313E-001	6.5062504E-006	1.157672601929274E-005	0.0000000E+000	-1.0006197E+002	1.1554044E-005	5.1529682E-005	5.2809130E-005	7.7362099E+001	1.687984499158753E-007
5.6210552E+003	4.7269321E+003	2.0510957E+004	2.1048592E+004	-7.7022270E+001	2.755325946866651E+001	1.7444119E-003	9.8392251E-004	1.3804362E-003	1.3108171E-003	1.000000000000000E+000	13	1.2197217E-001	5.7947905E-006	1.176212656326852E-005	0.0000000E+000	-1.0010207E+002	1.0669232E-005	4.6295612E-005	4.7509118E-005	7.7022270E+001	1.854005439757751E-007
5.0116035E+003	5.4154219E+003	2.2734875E+004	2.3370951E+004	-7.6601883E+001	2.831369091818488E+001	1.7577078E-003	9.9259580E-004	1.3968535E-003	1.3218531E-003	1.000000000000000E+000	13	1.2098563E-001	5.1767524E-006	1.196544618508991E-005	0.0000000E+000	-1.0006999E+002	9.9146982E-006	4.1623618E-005	4.2788160E-005	7.6601883E+001	2.033196218213917E-007
4.4664292E+003	6.2386260E+003	2.5214828E+004	2.5975143E+004	-7.6103027E+001	2.907371039428108E+001	1.7649431E-003	9.9387253E-004	1.4132001E-003	1.3316798E-003	1.000000000000000E+000	13	1.2018833E-001	4.6270516E-006	1.217093107706624E-005	0.0000000E+000	-1.0002989E+002	9.2464070E-006	3.7371465E-005	3.8498343E-005	7.6103027E+001	2.054848919763371E-007
3.9812742E+003	7.2096045E+003	2.7913055E+004	2.8829100E+004	-7.5517708E+001	2.983368469704874E+001	1.7591809E-003	1.0012656E-003	1.4321571E-003	1.3425895E-003	1.000000000000000E+000	13	1.1956441E-001	4.1473513E-006	1.238031536364901E-005	0.0000000E+000	-1.0007802E+002	8.6745958E-006	3.3584987E-005	3.4687175E-005	7.5517708E+001	2.093842865827655E-007
