EC-Lab ASCII FILE
Nb header lines : 75                          

Potentio Electrochemical Impedance Spectroscopy

Run on channel : 4 (SN 4192)
User : 
CE vs. WE compliance from -10 V to 10 V
Electrode connection : standard
Ewe ctrl range : min = -10.00 V, max = 10.00 V
Safety Limits :
	Do not start on E overload
Acquisition started on : 01/24/2020 09:45:03
Technique started on : 01/24/2020 09:45:04
Saved on :
	File : DE_40_4_60.mpr
	Directory : P:\Chemistry\Data\VMP3\Kyler\DOE\DE_40\2ND 60C\
	Host : 10.0.4.99
Device : VMP3 (SN 0183)
Address : USB
EC-Lab for windows v11.33 (software)
Internet server v11.32 (firmware)
Command interpretor v11.33 (firmware)
Electrode material : 
Initial state : 
Electrolyte : 
Comments : 
Electrode surface area : 0.001 cm²
Characteristic mass : 0.001 g
Equivalent Weight : 0.000 g/eq.
Density : 0.000 g/cm3
Record Analogic IN 1
Cycle Definition : Charge/Discharge alternance
External device configuration :
   device type : Thermostat
   device name : Other
   Analog OUT : 
      mode : E/V
      unit : T/°C
      max : 400.000 at 5.000 V
      min : -100.000 at 0.000 V
      current : 0.000
   Analog IN 1 : 
      unit : T/°C
      max : 400.000 at 5.000 V
      min : -100.000 at 0.000 V
Mode                Single sine         
E (V)               0.0000              
vs.                 Eoc                 
tE (h:m:s)          0:00:0.0000         
record              0                   
dI                  1.000               
unit dI             mA                  
dt (s)              0.000               
fi                  1.000               
unit fi             MHz                 
ff                  1.000               
unit ff             Hz                  
Nd                  20                  
Points              per decade          
spacing             Logarithmic         
Va (mV)             128.0               
pw                  0.50                
Na                  3                   
corr                0                   
E range min (V)     -10.000             
E range max (V)     10.000              
I Range             Auto                
Bandwidth           5                   
nc cycles           0                   
goto Ns'            0                   
nr cycles           0                   
inc. cycle          1                   

freq/Hz	Re(Z)/Ohm	-Im(Z)/Ohm	|Z|/Ohm	Phase(Z)/deg	time/s	<Ewe>/V	<I>/mA	Cs/µF	Cp/µF	cycle number	I Range	|Ewe|/V	|I|/A	(Q-Qo)/mA.h	Analog OUT/V	Analog IN 1/V	Re(Y)/Ohm-1	Im(Y)/Ohm-1	|Y|/Ohm-1	Phase(Y)/deg	dq/mA.h	
1.0000186E+006	7.1192070E+001	3.8389744E+001	8.0883148E+001	-2.8335403E+001	1.645491438132012E+000	-5.3853437E-002	1.9401397E-003	4.1456902E-003	9.3392323E-004	1.000000000000000E+000	11	6.1230431E-004	7.5702337E-006	4.450667250202968E-007	0.0000000E+000	-1.0003242E+002	1.0882171E-002	5.8681220E-003	1.2363515E-002	2.8335403E+001	4.450667250202968E-007
8.9124669E+005	7.6872101E+001	3.7865013E+001	8.5691765E+001	-2.6223549E+001	2.241477866453351E+000	-5.3601034E-002	2.2174530E-003	4.7161118E-003	9.2083571E-004	1.000000000000000E+000	11	7.5767864E-004	8.8419074E-006	7.654373923955467E-007	0.0000000E+000	-1.0009658E+002	1.0468647E-002	5.1565585E-003	1.1669733E-002	2.6223549E+001	3.203706673752499E-007
7.9433269E+005	8.3566917E+001	3.8522396E+001	9.2018501E+001	-2.4748596E+001	2.836489201377844E+000	-5.3430174E-002	2.5995497E-003	5.2012098E-003	9.1155036E-004	1.000000000000000E+000	11	6.3352915E-004	6.8848017E-006	1.114303316378533E-006	0.0000000E+000	-1.0012064E+002	9.8692477E-003	4.5494926E-003	1.0867380E-002	2.4748596E+001	3.488659239829860E-007
7.0794981E+005	1.0091820E+000	2.1414263E+000	2.3673096E+000	-6.4767075E+001	3.631600172520848E+000	-5.3244695E-002	2.8376284E-001	1.0498192E-001	8.5903466E-002	1.000000000000000E+000	9	3.0497977E-005	1.2882970E-005	2.828246773426589E-005	0.0000000E+000	-1.0002441E+002	1.8007751E-001	3.8211405E-001	4.2242047E-001	6.4767075E+001	2.716816441788736E-005
6.3095681E+005	9.2521034E+001	3.5603374E+001	9.9134972E+001	-2.1047415E+001	4.807481081661535E+000	-5.3184684E-002	3.0707973E-003	7.0848283E-003	9.1381418E-004	1.000000000000000E+000	11	1.3762666E-003	1.3882755E-005	5.740999713970976E-005	0.0000000E+000	-1.0010460E+002	9.4142715E-003	3.6227417E-003	1.0087257E-002	2.1047415E+001	2.912752940544386E-005
5.6234225E+005	9.6459526E+001	3.5057045E+001	1.0263253E+002	-1.9973061E+001	5.403490336640971E+000	-5.3084161E-002	3.1454298E-003	8.0731707E-003	9.4194309E-004	1.000000000000000E+000	11	3.6298556E-003	3.5367495E-005	5.770285636490290E-005	0.0000000E+000	-1.0011262E+002	9.1574602E-003	3.3281678E-003	9.7434996E-003	1.9973061E+001	2.928592251931481E-007
5.0120619E+005	1.0154095E+002	3.4450962E+001	1.0722608E+002	-1.8741121E+001	6.000489004974952E+000	-5.3035058E-002	3.3739822E-003	9.2172706E-003	9.5148996E-004	1.000000000000000E+000	11	6.8795588E-003	6.4159380E-005	5.825452708617013E-005	0.0000000E+000	-1.0008054E+002	8.8316193E-003	2.9964047E-003	9.3260892E-003	1.8741121E+001	5.516707212672246E-007
4.4668572E+005	1.0535562E+002	3.3287872E+001	1.1048932E+002	-1.7534307E+001	6.595473673223751E+000	-5.2981775E-002	3.5113371E-003	1.0703653E-002	9.7154628E-004	1.000000000000000E+000	11	1.1212286E-002	1.0147846E-004	5.862726125081058E-005	0.0000000E+000	-1.0004846E+002	8.6301258E-003	2.7267504E-003	9.0506487E-003	1.7534307E+001	3.727341646404540E-007
3.9810347E+005	1.0921362E+002	3.1852642E+001	1.1376381E+002	-1.6259562E+001	7.190487061481690E+000	-5.2992459E-002	3.5245516E-003	1.2551012E-002	9.8392367E-004	1.000000000000000E+000	11	1.6654801E-002	1.4639806E-004	5.873115633985799E-005	0.0000000E+000	-1.0012865E+002	8.4385639E-003	2.4611449E-003	8.7901419E-003	1.6259562E+001	1.038950890474053E-007
3.5480997E+005	1.1200828E+002	3.0142879E+001	1.1599331E+002	-1.5062195E+001	7.786473169835517E+000	-5.2950568E-002	3.4970078E-003	1.4881255E-002	1.0049471E-003	1.000000000000000E+000	11	2.3133254E-002	1.9943611E-004	5.959908092515131E-005	0.0000000E+000	-1.0015271E+002	8.3250003E-003	2.2403656E-003	8.6211869E-003	1.5062195E+001	8.679245852933202E-007
3.1622997E+005	1.1440999E+002	2.8358273E+001	1.1787212E+002	-1.3921074E+001	8.381479624746135E+000	-5.2945908E-002	3.4610899E-003	1.7747506E-002	1.0272465E-003	1.000000000000000E+000	11	3.0605057E-002	2.5964627E-004	5.989013153863723E-005	0.0000000E+000	-1.0011262E+002	8.2345856E-003	2.0410684E-003	8.4837703E-003	1.3921074E+001	2.910506134859241E-007
2.8183453E+005	1.1645966E+002	2.6441843E+001	1.1942371E+002	-1.2791980E+001	8.976478666329058E+000	-5.2969899E-002	3.4115850E-003	2.1356702E-002	1.0469755E-003	1.000000000000000E+000	11	3.9256204E-002	3.2871365E-004	6.000326176674450E-005	0.0000000E+000	-1.0009658E+002	8.1657181E-003	1.8540036E-003	8.3735464E-003	1.2791980E+001	1.131302281072663E-007
2.5118764E+005	1.1852609E+002	2.4674227E+001	1.2106714E+002	-1.1759621E+001	9.572486614662921E+000	-5.2940186E-002	3.5517295E-003	2.5679013E-002	1.0666277E-003	1.000000000000000E+000	11	4.9046740E-002	4.0512017E-004	6.017423714709184E-005	0.0000000E+000	-1.0012865E+002	8.0865147E-003	1.6834142E-003	8.2598794E-003	1.1759621E+001	1.709753803473451E-007
2.2387173E+005	1.2020704E+002	2.2911976E+001	1.2237112E+002	-1.0791380E+001	1.016847901625442E+001	-5.2959070E-002	3.2595298E-003	3.1028323E-002	1.0877411E-003	1.000000000000000E+000	11	5.9972901E-002	4.9009034E-004	6.063830620689785E-005	0.0000000E+000	-1.0004846E+002	8.0273468E-003	1.5300467E-003	8.1718629E-003	1.0791380E+001	4.640690598060044E-007
1.9954350E+005	1.2153450E+002	2.1237757E+001	1.2337616E+002	-9.9121656E+000	1.076449445795151E+001	-5.2911196E-002	3.6237643E-003	3.7555531E-002	1.1128297E-003	1.000000000000000E+000	11	7.1799956E-002	5.8195973E-004	6.013994356984080E-005	0.0000000E+000	-1.0010460E+002	7.9843048E-003	1.3952312E-003	8.1052938E-003	9.9121656E+000	-4.983626370570486E-007
1.7783180E+005	1.2253911E+002	1.9689804E+001	1.2411092E+002	-9.1283617E+000	1.136047520625289E+001	-5.2913580E-002	3.3157459E-003	4.5453709E-002	1.1440160E-003	1.000000000000000E+000	11	8.4554233E-002	6.8127952E-004	6.141211374465921E-005	0.0000000E+000	-1.0004044E+002	7.9552662E-003	1.2782664E-003	8.0573084E-003	9.1283617E+000	1.272170174818414E-006
1.5848613E+005	1.2339605E+002	1.8245789E+001	1.2473770E+002	-8.4110165E+000	1.195548310116283E+001	-5.2932687E-002	3.2414875E-003	5.5038460E-002	1.1775952E-003	1.000000000000000E+000	11	9.8281801E-002	7.8790775E-004	6.171926981850063E-005	0.0000000E+000	-1.0012064E+002	7.9305954E-003	1.1726466E-003	8.0168229E-003	8.4110165E+000	3.071560738414142E-007
1.4125594E+005	1.2405275E+002	1.6943125E+001	1.2520445E+002	-7.7773356E+000	1.255149059611722E+001	-5.2934106E-002	3.5787313E-003	6.6499732E-002	1.2177759E-003	1.000000000000000E+000	11	1.1277947E-001	9.0076245E-004	6.394924372046282E-005	0.0000000E+000	-1.0005648E+002	7.9134684E-003	1.0808215E-003	7.9869367E-003	7.7773356E+000	2.229973901962190E-006
1.2590930E+005	1.2467294E+002	1.5798648E+001	1.2566996E+002	-7.2220702E+000	1.301147235129611E+001	-5.2943669E-002	3.5591894E-003	8.0009654E-002	1.2645014E-003	1.000000000000000E+000	11	1.2829864E-001	1.0209173E-003	6.473306200530512E-005	0.0000000E+000	-1.0014469E+002	7.8942208E-003	1.0003615E-003	7.9573514E-003	7.2220702E+000	7.838182848423064E-007
1.1220494E+005	1.2514742E+002	1.4778784E+001	1.2601702E+002	-6.7349243E+000	1.360747488631750E+001	-5.3034775E-002	2.7291116E-003	9.5977500E-002	1.3200440E-003	1.000000000000000E+000	11	1.2926009E-001	1.0257352E-003	6.671503904118677E-005	0.0000000E+000	-1.0006450E+002	7.8806756E-003	9.3063689E-004	7.9354355E-003	6.7349243E+000	1.981977035881650E-006
1.0000371E+005	1.2554836E+002	1.3922579E+001	1.2631796E+002	-6.3279123E+000	1.420348822124652E+001	-5.2926350E-002	3.5800338E-003	1.1431002E-001	1.3886521E-003	1.000000000000000E+000	11	1.2972060E-001	1.0269370E-003	6.966034952368824E-005	0.0000000E+000	-1.0012064E+002	7.8682983E-003	8.7254826E-004	7.9165306E-003	6.3279123E+000	2.945310482501464E-006
8.9129305E+004	1.2586069E+002	1.3195530E+001	1.2655052E+002	-5.9851584E+000	1.479848083617981E+001	-5.2924540E-002	3.4179278E-003	1.3532336E-001	1.4712909E-003	1.000000000000000E+000	11	1.2967938E-001	1.0247242E-003	7.228549798216571E-005	0.0000000E+000	-1.0009658E+002	7.8589078E-003	8.2394638E-004	7.9019824E-003	5.9851584E+000	2.625148458477468E-006
7.9433273E+004	1.2611855E+002	1.2610409E+001	1.2674743E+002	-5.7099423E+000	1.539348057113239E+001	-5.2881289E-002	3.7306021E-003	1.5888706E-001	1.5727819E-003	1.000000000000000E+000	11	1.2954316E-001	1.0220575E-003	7.427093115701265E-005	0.0000000E+000	-1.0007252E+002	7.8505604E-003	7.8496599E-004	7.8897066E-003	5.7099423E+000	1.985433174846946E-006
7.0794977E+004	1.2630422E+002	1.2176115E+001	1.2688977E+002	-5.5064731E+000	1.598847630605451E+001	-5.2917905E-002	3.4209052E-003	1.8463282E-001	1.7000950E-003	1.000000000000000E+000	11	1.2947665E-001	1.0203868E-003	7.499826438076384E-005	0.0000000E+000	-1.0014469E+002	7.8444891E-003	7.5623282E-004	7.8808563E-003	5.5064731E+000	7.273332237511858E-007
6.3093828E+004	1.2646981E+002	1.1868505E+001	1.2702549E+002	-5.3611965E+000	1.658347233428503E+001	-5.2878812E-002	3.8085848E-003	2.1253830E-001	1.8554426E-003	1.000000000000000E+000	11	1.2942609E-001	1.0188986E-003	7.407227799290640E-005	0.0000000E+000	-1.0005648E+002	7.8379968E-003	7.3555351E-004	7.8724353E-003	5.3611965E+000	-9.259863878574429E-007
5.6237012E+004	1.2659299E+002	1.1693678E+001	1.2713194E+002	-5.2775626E+000	1.717948590926244E+001	-5.2904986E-002	3.5772424E-003	2.4201749E-001	2.0475746E-003	1.000000000000000E+000	11	1.2931436E-001	1.0171667E-003	7.283961467170755E-005	0.0000000E+000	-1.0007252E+002	7.8324992E-003	7.2350545E-004	7.8658443E-003	5.2775626E+000	-1.232663321198849E-006
5.0122477E+004	1.2677927E+002	1.1678898E+001	1.2731607E+002	-5.2632284E+000	1.763947699780692E+001	-5.2863318E-002	3.5796629E-003	2.7188531E-001	2.2878260E-003	1.000000000000000E+000	11	1.4052685E-001	1.1037636E-003	7.366938974020256E-005	0.0000000E+000	-1.0009658E+002	7.8213522E-003	7.2050234E-004	7.8544682E-003	5.2632284E+000	8.297750684950093E-007
4.4666715E+004	1.2682896E+002	1.1767035E+001	1.2737365E+002	-5.3006577E+000	1.823548750611371E+001	-5.2887797E-002	3.6570868E-003	3.0280918E-001	2.5843063E-003	1.000000000000000E+000	11	1.3024691E-001	1.0225577E-003	7.371812126925296E-005	0.0000000E+000	-1.0005648E+002	7.8173438E-003	7.2528358E-004	7.8509171E-003	5.3006577E+000	4.873152905039886E-008
3.9814063E+004	1.2699020E+002	1.2022305E+001	1.2755801E+002	-5.4081373E+000	1.869448366123834E+001	-5.2875921E-002	3.5176864E-003	3.3250326E-001	2.9536290E-003	1.000000000000000E+000	11	1.3981147E-001	1.0960619E-003	7.493150717315682E-005	0.0000000E+000	-1.0006450E+002	7.8046736E-003	7.3887722E-004	7.8395708E-003	5.4081373E+000	1.213385903903861E-006
3.5480996E+004	1.2699459E+002	1.2401330E+001	1.2759866E+002	-5.5773883E+000	1.928947955617332E+001	-5.2873384E-002	3.6835140E-003	3.6170632E-001	3.4166488E-003	1.000000000000000E+000	11	1.3003635E-001	1.0191044E-003	7.459496763975363E-005	0.0000000E+000	-1.0008054E+002	7.7999709E-003	7.6168613E-004	7.8370729E-003	5.5773883E+000	-3.365395334031888E-007
3.1621143E+004	1.2718836E+002	1.2945754E+001	1.2784550E+002	-5.8117847E+000	1.974948117803433E+001	-5.2858230E-002	3.7553564E-003	3.8879013E-001	3.9865668E-003	1.000000000000000E+000	11	1.3772500E-001	1.0772769E-003	7.511721605065799E-005	0.0000000E+000	-1.0007252E+002	7.7817361E-003	7.9205708E-004	7.8219417E-003	5.8117847E+000	5.222484109043609E-007
2.8188096E+004	1.2718845E+002	1.3627062E+001	1.2791637E+002	-6.1153827E+000	2.034547093967558E+001	-5.2867346E-002	3.7648461E-003	4.1433552E-001	4.7022356E-003	1.000000000000000E+000	11	1.2966071E-001	1.0136366E-003	7.502402244677150E-005	0.0000000E+000	-1.0009658E+002	7.7731214E-003	8.3281781E-004	7.8176083E-003	6.1153827E+000	-9.319360388649028E-008
2.5116910E+004	1.2738136E+002	1.4474088E+001	1.2820105E+002	-6.4826002E+000	2.080449277479784E+001	-5.2864324E-002	3.6204208E-003	4.3778685E-001	5.5803563E-003	1.000000000000000E+000	11	1.3550268E-001	1.0569545E-003	7.528670236701711E-005	0.0000000E+000	-1.0004846E+002	7.7503747E-003	8.8065950E-004	7.8002480E-003	6.4826002E+000	2.626799202456125E-007
2.2389027E+004	1.2751674E+002	1.5490569E+001	1.2845418E+002	-6.9262800E+000	2.126349452990689E+001	-5.2847881E-002	3.6770010E-003	4.5889947E-001	6.6735330E-003	1.000000000000000E+000	11	1.4071022E-001	1.0954118E-003	7.492877341532747E-005	0.0000000E+000	-1.0007252E+002	7.7280640E-003	9.3879527E-004	7.7848770E-003	6.9262800E+000	-3.579289516896433E-007
1.9948783E+004	1.2758495E+002	1.6675961E+001	1.2867015E+002	-7.4466171E+000	2.185848367816652E+001	-5.2868035E-002	3.6699267E-003	4.7842389E-001	8.0359820E-003	1.000000000000000E+000	11	1.2963845E-001	1.0075254E-003	7.722904932910024E-005	0.0000000E+000	-1.0018479E+002	7.7062631E-003	1.0072453E-003	7.7718101E-003	7.4466171E+000	2.300275913772774E-006
1.7786895E+004	1.2778026E+002	1.8068935E+001	1.2905147E+002	-8.0486212E+000	2.231748186002369E+001	-5.2857690E-002	3.7263220E-003	4.9520779E-001	9.7079314E-003	1.000000000000000E+000	11	1.3315825E-001	1.0318229E-003	7.710295076453621E-005	0.0000000E+000	-1.0008855E+002	7.6725171E-003	1.0849423E-003	7.7488464E-003	8.0486212E+000	-1.260985645640272E-007
1.5847686E+004	1.2801643E+002	1.9668350E+001	1.2951854E+002	-8.7345819E+000	2.277748510849779E+001	-5.2866340E-002	3.6857484E-003	5.1060653E-001	1.1774930E-002	1.000000000000000E+000	11	1.3619478E-001	1.0515467E-003	7.689371660229599E-005	0.0000000E+000	-1.0008855E+002	7.6313587E-003	1.1724763E-003	7.7209026E-003	8.7345819E+000	-2.092341622402275E-007
1.4121879E+004	1.2825954E+002	2.1497133E+001	1.3004858E+002	-9.5147076E+000	2.323648934366065E+001	-5.2853402E-002	3.6963571E-003	5.2426046E-001	1.4325076E-002	1.000000000000000E+000	11	1.3872047E-001	1.0666819E-003	7.809516408108902E-005	0.0000000E+000	-1.0011262E+002	7.5836522E-003	1.2710694E-003	7.6894341E-003	9.5147076E+000	1.201447478793038E-006
1.2590932E+004	1.2846928E+002	2.3543768E+001	1.3060883E+002	-1.0385003E+001	2.383247558531002E+001	-5.2865051E-002	3.6427532E-003	5.3689122E-001	1.7445892E-002	1.000000000000000E+000	11	1.2925877E-001	9.8966330E-004	7.890434728782202E-005	0.0000000E+000	-1.0004044E+002	7.5310278E-003	1.3801648E-003	7.6564504E-003	1.0385003E+001	8.091832067329995E-007
1.1217711E+004	1.2878847E+002	2.5876472E+001	1.3136234E+002	-1.1360733E+001	2.429249608711689E+001	-5.2858844E-002	3.7778732E-003	5.4829067E-001	2.1275476E-002	1.000000000000000E+000	11	1.3081942E-001	9.9586707E-004	7.863893566815548E-005	0.0000000E+000	-1.0012865E+002	7.4633751E-003	1.4995582E-003	7.6125320E-003	1.1360733E+001	-2.654116196665454E-007
1.0002229E+004	1.2918285E+002	2.8482803E+001	1.3228560E+002	-1.2433888E+001	2.475147690894664E+001	-5.2866451E-002	3.6900262E-003	5.5865103E-001	2.5898876E-002	1.000000000000000E+000	11	1.3207430E-001	9.9840271E-004	7.876400649045576E-005	0.0000000E+000	-1.0006450E+002	7.3820967E-003	1.6276372E-003	7.5594019E-003	1.2433888E+001	1.250708223002843E-007
8.9149297E+003	1.2963235E+002	3.1415543E+001	1.3338472E+002	-1.3622619E+001	2.523390127855237E+001	-5.2810635E-002	4.0402957E-003	5.6827384E-001	3.1523511E-002	1.000000000000000E+000	11	1.3306347E-001	9.9759153E-004	7.923078545479237E-005	0.0000000E+000	-1.0012865E+002	7.2862026E-003	1.7657629E-003	7.4971104E-003	1.3622619E+001	4.667789643366023E-007
7.9439976E+003	1.3017615E+002	3.4678337E+001	1.3471606E+002	-1.4916909E+001	2.575997210352216E+001	-5.2776836E-002	4.1813729E-003	5.7772708E-001	3.8282521E-002	1.000000000000000E+000	11	1.3384336E-001	9.9352188E-004	7.918526539880178E-005	0.0000000E+000	-1.0012064E+002	7.1728649E-003	1.9108187E-003	7.4230195E-003	1.4916909E+001	-4.552005599058496E-008
7.0822334E+003	1.3080540E+002	3.8316006E+001	1.3630176E+002	-1.6326559E+001	2.633688247759710E+001	-5.2769583E-002	4.2560049E-003	5.8650225E-001	4.6347596E-002	1.000000000000000E+000	11	1.3443238E-001	9.8628493E-004	8.054890597411253E-005	0.0000000E+000	-1.0012865E+002	7.0408122E-003	2.0624208E-003	7.3366626E-003	1.6326559E+001	1.363640575310752E-006
6.3077344E+003	1.3153909E+002	4.2382442E+001	1.3819843E+002	-1.7859158E+001	2.697155738770380E+001	-5.2765090E-002	4.0045632E-003	5.9533411E-001	5.5992071E-002	1.000000000000000E+000	11	1.3487659E-001	9.7596337E-004	8.118272970901146E-005	0.0000000E+000	-1.0008054E+002	6.8872948E-003	2.2191152E-003	7.2359727E-003	1.7859158E+001	6.338237348989278E-007
5.6210552E+003	1.3237357E+002	4.6881672E+001	1.4043024E+002	-1.9502205E+001	2.767225443435018E+001	-5.2754387E-002	4.0257820E-003	6.0394746E-001	6.7310698E-002	1.000000000000000E+000	11	1.3518590E-001	9.6265523E-004	8.107162394447125E-005	0.0000000E+000	-1.0010460E+002	6.7124334E-003	2.3772882E-003	7.1209734E-003	1.9502205E+001	-1.111057645402052E-007
5.0116035E+003	1.3332463E+002	5.1817326E+001	1.4304018E+002	-2.1238880E+001	2.843267121716781E+001	-5.2741580E-002	4.1279583E-003	6.1287010E-001	8.0427088E-002	1.000000000000000E+000	11	1.3538429E-001	9.4647735E-004	8.159917165864237E-005	0.0000000E+000	-1.0012865E+002	6.5161986E-003	2.5325553E-003	6.9910428E-003	2.1238880E+001	5.275477141711130E-007
4.4664292E+003	1.3441251E+002	5.7281677E+001	1.4610925E+002	-2.3081923E+001	2.919269546659780E+001	-5.2735467E-002	4.1502924E-003	6.2207669E-001	9.5613666E-002	1.000000000000000E+000	11	1.3551742E-001	9.2750747E-004	8.167129407557028E-005	0.0000000E+000	-1.0008054E+002	6.2962836E-003	2.6832449E-003	6.8441937E-003	2.3081923E+001	7.212241692790820E-008
3.9812742E+003	1.3572040E+002	6.3312435E+001	1.4976144E+002	-2.5008659E+001	2.995270294269721E+001	-5.2770700E-002	3.9115059E-003	6.3140649E-001	1.1284622E-001	1.000000000000000E+000	11	1.3556859E-001	9.0523023E-004	8.228476714432489E-005	0.0000000E+000	-1.0007252E+002	6.0512498E-003	2.8228576E-003	6.6772862E-003	2.5008659E+001	6.134730687546092E-007
