EC-Lab ASCII FILE
Nb header lines : 60                          

Potentio Electrochemical Impedance Spectroscopy

Run on channel : 2 (SN 20919)
User : 
CE vs. WE compliance from -10 V to 10 V
Electrode connection : standard
Ewe ctrl range : min = -10.00 V, max = 10.00 V
Acquisition started on : 02/07/2020 11:51:25
Technique started on : 02/07/2020 11:51:26
Saved on :
	File : DE_57_6_60.mpr
	Directory : P:\Chemistry\Data\VMP3\Kyler\DOE\DE_57\60c\
	Host : 10.0.4.99
Device : VMP3
Address : USB
EC-Lab for windows v11.33 (software)
Internet server v11.32 (firmware)
Command interpretor v11.33 (firmware)
Electrode material : 
Initial state : 
Electrolyte : 
Comments : 
Electrode surface area : 0.001 cm²
Characteristic mass : 0.001 g
Equivalent Weight : 0.000 g/eq.
Density : 0.000 g/cm3
Record Analogic IN 1
Cycle Definition : Charge/Discharge alternance
Mode                Single sine         
E (V)               0.0000              
vs.                 Eoc                 
tE (h:m:s)          0:00:0.0000         
record              0                   
dI                  1.000               
unit dI             mA                  
dt (s)              0.000               
fi                  1.000               
unit fi             MHz                 
ff                  1.000               
unit ff             Hz                  
Nd                  20                  
Points              per decade          
spacing             Logarithmic         
Va (mV)             128.0               
pw                  0.50                
Na                  3                   
corr                0                   
E range min (V)     -10.000             
E range max (V)     10.000              
I Range             Auto                
Bandwidth           5                   
nc cycles           0                   
goto Ns'            0                   
nr cycles           0                   
inc. cycle          1                   

freq/Hz	Re(Z)/Ohm	-Im(Z)/Ohm	|Z|/Ohm	Phase(Z)/deg	time/s	<Ewe>/V	<I>/mA	Cs/µF	Cp/µF	cycle number	I Range	|Ewe|/V	|I|/A	(Q-Qo)/mA.h	Analog IN 1/V	Re(Y)/Ohm-1	Im(Y)/Ohm-1	|Y|/Ohm-1	Phase(Y)/deg	dq/mA.h	
1.0000186E+006	5.4018948E+001	1.6614948E+001	5.6516399E+001	-1.7096657E+001	1.951495399320265E+000	-4.6959887E-003	2.8734608E-003	9.5788436E-003	8.2786987E-004	1.000000000000000E+000	11	1.0384248E-003	1.8373867E-005	1.006693649320773E-006	-1.5796525E-003	1.6912086E-002	5.2017570E-003	1.7693980E-002	1.7096657E+001	1.006693649320773E-006
8.9124669E+005	4.9848602E+001	1.5254411E+001	5.2130417E+001	-1.7014885E+001	2.547478654276347E+000	-4.2787115E-003	2.6021248E-003	1.1706493E-002	1.0023866E-003	1.000000000000000E+000	11	1.6414318E-003	3.1487027E-005	1.247385209486513E-006	-1.4994717E-003	1.8343011E-002	5.6132325E-003	1.9182660E-002	1.7014885E+001	2.406915601657400E-007
7.9433269E+005	4.9272034E+001	1.1803062E+001	5.0666019E+001	-1.3471293E+001	3.143475215969374E+000	-3.9320341E-003	2.6591795E-003	1.6975516E-002	9.2125282E-004	1.000000000000000E+000	11	2.5513556E-003	5.0356346E-005	1.470196831485181E-006	-1.2589293E-003	1.9194063E-002	4.5979172E-003	1.9737095E-002	1.3471293E+001	2.228116219986683E-007
7.0794981E+005	5.1477798E+001	1.0368732E+001	5.2511658E+001	-1.1388222E+001	3.738479937514057E+000	-3.6427383E-003	2.7047128E-003	2.1681631E-002	8.4534084E-004	1.000000000000000E+000	11	3.8838445E-003	7.3961564E-005	2.144901996015203E-006	-1.6598334E-003	1.8668460E-002	3.7602282E-003	1.9043390E-002	1.1388222E+001	6.747051645300217E-007
6.3095681E+005	5.2695999E+001	8.9094400E+000	5.3443863E+001	-9.5963831E+000	4.334494552487740E+000	-3.3893110E-003	2.7954064E-003	2.8311972E-002	7.8681973E-004	1.000000000000000E+000	11	5.5992589E-003	1.0476898E-004	2.435838813966257E-006	-1.3391101E-003	1.8449388E-002	3.1192824E-003	1.8711222E-002	9.5963831E+000	2.909368179510542E-007
5.6234225E+005	5.3529106E+001	9.2270441E+000	5.4318539E+001	-9.7802114E+000	4.930493700812804E+000	-3.1891642E-003	2.9020831E-003	3.0673038E-002	8.8508683E-004	1.000000000000000E+000	11	7.8075398E-003	1.4373619E-004	2.878350413354282E-006	-1.3391101E-003	1.8142363E-002	3.1272776E-003	1.8409921E-002	9.7802114E+000	4.425115993880252E-007
5.0120619E+005	5.4552200E+001	8.4584875E+000	5.5204063E+001	-8.8137035E+000	5.526488822448300E+000	-3.0318580E-003	2.8571095E-003	3.7541445E-002	8.8136207E-004	1.000000000000000E+000	11	1.0460013E-002	1.8947903E-004	3.759422691128647E-006	-1.6598334E-003	1.7900705E-002	2.7755599E-003	1.8114608E-002	8.8137035E+000	8.810722777743648E-007
4.4668572E+005	5.5791630E+001	7.9624553E+000	5.6356956E+001	-8.1222744E+000	6.121492130710976E+000	-2.9002787E-003	3.0035584E-003	4.4747736E-002	8.9324376E-004	1.000000000000000E+000	11	1.3689038E-002	2.4289882E-004	4.686674736789427E-006	-1.5796525E-003	1.7566044E-002	2.5069860E-003	1.7744038E-002	8.1222744E+000	9.272520456607806E-007
3.9810347E+005	5.6602554E+001	7.2382731E+000	5.7063488E+001	-7.2873707E+000	6.717476239049574E+000	-2.8629187E-003	2.8149255E-003	5.5231802E-002	8.8867411E-004	1.000000000000000E+000	11	1.7399160E-002	3.0490881E-004	4.696664987561841E-006	-1.8201950E-003	1.7382788E-002	2.2228921E-003	1.7524341E-002	7.2873707E+000	9.990250772413480E-009
3.5480997E+005	5.7482132E+001	6.7687812E+000	5.7879288E+001	-6.7159100E+000	7.313491627370240E+000	-2.8522923E-003	2.9682510E-003	6.6269524E-002	9.0633438E-004	1.000000000000000E+000	11	2.1718280E-002	3.7523406E-004	5.557602013391766E-006	-1.8201950E-003	1.7158784E-002	2.0205243E-003	1.7277338E-002	6.7159100E+000	8.609370258299250E-007
3.1622997E+005	5.8001072E+001	6.6721401E+000	5.8383575E+001	-6.5621629E+000	7.908477762277471E+000	-2.8679520E-003	2.7959726E-003	7.5431362E-002	9.8514662E-004	1.000000000000000E+000	11	2.6652941E-002	4.5651439E-004	6.049165815441584E-006	-1.5796525E-003	1.7015889E-002	1.9574189E-003	1.7128104E-002	6.5621629E+000	4.915638020498185E-007
2.8183453E+005	5.8460220E+001	6.1449161E+000	5.8782288E+001	-6.0004845E+000	8.504486670572078E+000	-2.8801067E-003	2.8879698E-003	9.1898829E-002	1.0042663E-003	1.000000000000000E+000	11	3.2295283E-002	5.4940500E-004	6.183678504820111E-006	-1.2589293E-003	1.6918719E-002	1.7783737E-003	1.7011927E-002	6.0004845E+000	1.345126893785271E-007
2.5118764E+005	5.8860031E+001	5.7664881E+000	5.9141827E+001	-5.5953832E+000	9.100496698898496E+000	-2.8870977E-003	2.9732764E-003	1.0987794E-001	1.0445850E-003	1.000000000000000E+000	11	3.8690671E-002	6.5420149E-004	7.615626897239256E-006	-1.2589293E-003	1.6827943E-002	1.6486252E-003	1.6908508E-002	5.5953832E+000	1.431948392419144E-006
2.2387173E+005	5.9179104E+001	5.3979506E+000	5.9424778E+001	-5.2117434E+000	9.696483500505565E+000	-2.8981152E-003	2.6588279E-003	1.3170187E-001	1.0867125E-003	1.000000000000000E+000	11	4.5842156E-002	7.7143166E-004	8.938859861845332E-006	-1.4994717E-003	1.6758427E-002	1.5285996E-003	1.6827997E-002	5.2117434E+000	1.323232964606077E-006
1.9954350E+005	5.9576702E+001	4.8763881E+000	5.9775936E+001	-4.6792622E+000	1.029349590223865E+001	-2.8759863E-003	3.0364711E-003	1.6356272E-001	1.0884990E-003	1.000000000000000E+000	11	5.3798992E-002	9.0001087E-004	1.034675279438509E-005	-1.7400142E-003	1.6673382E-002	1.3647261E-003	1.6729141E-002	4.6792622E+000	1.407892932539753E-006
1.7783180E+005	5.9832245E+001	4.8545132E+000	6.0028858E+001	-4.6385550E+000	1.088849755717092E+001	-2.8747930E-003	2.9704971E-003	1.8435930E-001	1.2056916E-003	1.000000000000000E+000	11	6.2415022E-002	1.0397503E-003	9.175829549226263E-006	-1.0985675E-003	1.6604092E-002	1.3471795E-003	1.6658654E-002	4.6385550E+000	-1.170923245158822E-006
1.5848613E+005	5.9822571E+001	4.6872554E+000	6.0005920E+001	-4.4801211E+000	1.148448371878476E+001	-2.8580700E-003	2.8270278E-003	2.1424478E-001	1.3072520E-003	1.000000000000000E+000	11	7.1598351E-002	1.1931881E-003	9.875466302215095E-006	-1.5796525E-003	1.6614104E-002	1.3017585E-003	1.6665023E-002	4.4801211E+000	6.996367529888317E-007
1.4125594E+005	6.0244015E+001	4.5575571E+000	6.0416161E+001	-4.3262777E+000	1.208049460043549E+001	-2.8506687E-003	3.0069347E-003	2.4721870E-001	1.4068225E-003	1.000000000000000E+000	11	8.1682898E-002	1.3520041E-003	7.589644399668840E-006	-1.2589293E-003	1.6504701E-002	1.2486074E-003	1.6551863E-002	4.3262777E+000	-2.285821902546255E-006
1.2590930E+005	6.0195736E+001	4.4550586E+000	6.0360371E+001	-4.2327175E+000	1.267649580209400E+001	-2.8485060E-003	2.7467553E-003	2.8373241E-001	1.5456529E-003	1.000000000000000E+000	11	9.2207879E-002	1.5276228E-003	8.947034746825618E-006	-1.4192909E-003	1.6521974E-002	1.2227837E-003	1.6567161E-002	4.2327175E+000	1.357390347156778E-006
1.1220494E+005	6.0444366E+001	4.0164213E+000	6.0577663E+001	-3.8016145E+000	1.327149689701037E+001	-2.8047145E-003	3.4334636E-003	3.5315785E-001	1.5524670E-003	1.000000000000000E+000	11	1.0392862E-001	1.7156261E-003	8.180031809571017E-006	-1.4994717E-003	1.6471412E-002	1.0944961E-003	1.6507735E-002	3.8016145E+000	-7.670029372546007E-007
1.0000371E+005	6.0559052E+001	3.8972089E+000	6.0684322E+001	-3.6821272E+000	1.373148505217978E+001	-2.8438265E-003	2.9866907E-003	4.0836668E-001	1.6842427E-003	1.000000000000000E+000	11	1.1654141E-001	1.9204533E-003	1.004479630060248E-005	-1.0985675E-003	1.6444704E-002	1.0582802E-003	1.6478721E-002	3.6821272E+000	1.864764491031465E-006
8.9129305E+004	6.0685211E+001	3.8237731E+000	6.0805561E+001	-3.6054387E+000	1.419148534067790E+001	-2.8451493E-003	2.7595866E-003	4.6698990E-001	1.8467373E-003	1.000000000000000E+000	11	1.3031766E-001	2.1431865E-003	9.275339950849431E-006	-1.4994717E-003	1.6413314E-002	1.0342024E-003	1.6445864E-002	3.6054387E+000	-7.694563497530512E-007
7.9433273E+004	6.0802414E+001	3.7815578E+000	6.0919895E+001	-3.5588815E+000	1.478749584898469E+001	-2.7968651E-003	3.0439333E-003	5.2984267E-001	2.0415976E-003	1.000000000000000E+000	11	1.2949272E-001	2.1256227E-003	1.153569502742094E-005	-1.7400142E-003	1.6383342E-002	1.0189490E-003	1.6414998E-002	3.5588815E+000	2.260355076571512E-006
7.0794977E+004	6.0902359E+001	3.7730381E+000	6.1019123E+001	-3.5450716E+000	1.538347734397394E+001	-2.7701503E-003	2.8757434E-003	5.9583563E-001	2.2781219E-003	1.000000000000000E+000	11	1.2963603E-001	2.1245149E-003	1.452986597828244E-005	-1.5796525E-003	1.6356945E-002	1.0133495E-003	1.6388305E-002	3.5450716E+000	2.994170950861493E-006
6.3093828E+004	6.1018543E+001	3.8057132E+000	6.1137108E+001	-3.5689023E+000	1.597947723892867E+001	-2.7409187E-003	2.9419011E-003	6.6282243E-001	2.5683814E-003	1.000000000000000E+000	11	1.2961444E-001	2.1200618E-003	1.897678844051117E-005	-1.4192909E-003	1.6324958E-002	1.0181840E-003	1.6356679E-002	3.5689023E+000	4.446922462228739E-006
5.6237012E+004	6.1082718E+001	3.8765178E+000	6.1205605E+001	-3.6313157E+000	1.657547838726896E+001	-2.7217169E-003	2.9223878E-003	7.3005587E-001	2.9285813E-003	1.000000000000000E+000	11	1.2954158E-001	2.1164985E-003	1.486358083591201E-005	-1.3391101E-003	1.6305570E-002	1.0348071E-003	1.6338373E-002	3.6313157E+000	-4.113207604599161E-006
5.0122477E+004	6.1211281E+001	3.9505663E+000	6.1338634E+001	-3.6927388E+000	1.717047318883124E+001	-2.6851401E-003	2.7817022E-003	8.0376345E-001	3.3341011E-003	1.000000000000000E+000	11	1.2952742E-001	2.1116775E-003	1.688026190158821E-005	-1.1787484E-003	1.6269092E-002	1.0500045E-003	1.6302940E-002	3.6927388E+000	2.016681065676192E-006
4.4666715E+004	6.1286076E+001	4.1038480E+000	6.1423325E+001	-3.8309302E+000	1.776648833716172E+001	-2.6759307E-003	2.7644178E-003	8.6825013E-001	3.8757946E-003	1.000000000000000E+000	11	1.2940623E-001	2.1067930E-003	1.431837266892156E-005	-1.4994717E-003	1.6244084E-002	1.0877389E-003	1.6280461E-002	3.8309302E+000	-2.561889232666647E-006
3.9814063E+004	6.1304516E+001	4.3170958E+000	6.1456333E+001	-4.0281487E+000	1.836348513883422E+001	-2.6745885E-003	2.7066185E-003	9.2595941E-001	4.5692199E-003	1.000000000000000E+000	11	1.2940529E-001	2.1056461E-003	1.424568183100847E-005	-1.0985675E-003	1.6231520E-002	1.1430320E-003	1.6271716E-002	4.0281487E+000	-7.269083791308867E-008
3.5480996E+004	6.1420376E+001	4.5568085E+000	6.1589180E+001	-4.2430291E+000	1.895948938050424E+001	-2.6336866E-003	3.1019181E-003	9.8438174E-001	5.3886040E-003	1.000000000000000E+000	11	1.2925592E-001	2.0986791E-003	1.111251951934214E-005	-1.3391101E-003	1.6192116E-002	1.2013012E-003	1.6236618E-002	4.2430291E+000	-3.133162311666336E-006
3.1621143E+004	6.1510220E+001	4.8455839E+000	6.1700783E+001	-4.5042815E+000	1.941849310896941E+001	-2.6433242E-003	3.4780737E-003	1.0387151E+000	6.4063012E-003	1.000000000000000E+000	11	1.4019264E-001	2.2721372E-003	1.124944132654087E-005	-1.6598334E-003	1.6157193E-002	1.2728135E-003	1.6207250E-002	4.5042815E+000	1.369218071987338E-007
2.8188096E+004	6.1566162E+001	5.1530647E+000	6.1781441E+001	-4.7844834E+000	2.001448047059239E+001	-2.6315425E-003	2.9536106E-003	1.0956928E+000	7.6226140E-003	1.000000000000000E+000	11	1.3034950E-001	2.1098489E-003	9.474013006718855E-006	-1.8201950E-003	1.6129689E-002	1.3500490E-003	1.6186090E-002	4.7844834E+000	-1.775428319822014E-006
2.5116910E+004	6.1672497E+001	5.5531631E+000	6.1922005E+001	-5.1451960E+000	2.047447971915244E+001	-2.6181752E-003	2.8287272E-003	1.1410732E+000	9.1770757E-003	1.000000000000000E+000	11	1.3979492E-001	2.2575967E-003	9.371463076305290E-006	-1.3391101E-003	1.6084276E-002	1.4482730E-003	1.6149348E-002	5.1451960E+000	-1.025499304135646E-007
2.2389027E+004	6.1685608E+001	5.9550223E+000	6.1972385E+001	-5.5141482E+000	2.107048500076053E+001	-2.5780571E-003	5.1614703E-003	1.1937174E+000	1.1022291E-002	1.000000000000000E+000	11	1.3011390E-001	2.0995464E-003	1.192194956226255E-005	-1.2589293E-003	1.6061550E-002	1.5505543E-003	1.6136220E-002	5.5141482E+000	2.550486485957259E-006
1.9948783E+004	6.1819405E+001	6.5028625E+000	6.2160484E+001	-6.0049334E+000	2.153048496929114E+001	-2.6035409E-003	2.9783300E-003	1.2268717E+000	1.3427016E-002	1.000000000000000E+000	11	1.3774937E-001	2.2160280E-003	1.381567671287000E-005	-1.4994717E-003	1.5999118E-002	1.6829678E-003	1.6087390E-002	6.0049334E+000	1.893727150607446E-006
1.7786895E+004	6.1956203E+001	7.1088109E+000	6.2362701E+001	-6.5454531E+000	2.212648603759590E+001	-2.5977064E-003	3.3959260E-003	1.2587024E+000	1.6355624E-002	1.000000000000000E+000	11	1.2973717E-001	2.0803649E-003	1.660420718004267E-005	-1.3391101E-003	1.5930703E-002	1.8278775E-003	1.6035225E-002	6.5454531E+000	2.788530467172676E-006
1.5847686E+004	6.1981243E+001	7.7949142E+000	6.2469475E+001	-7.1680264E+000	2.258647960607777E+001	-2.5885524E-003	2.7012315E-003	1.2883769E+000	2.0059953E-002	1.000000000000000E+000	11	1.3548419E-001	2.1688063E-003	1.852716401600305E-005	-1.1787484E-003	1.5882708E-002	1.9974487E-003	1.6007818E-002	7.1680264E+000	1.922956835960375E-006
1.4121879E+004	6.2109306E+001	8.4460497E+000	6.2680950E+001	-7.7439718E+000	2.304647208130336E+001	-2.5892234E-003	3.1322106E-003	1.3343630E+000	2.4227586E-002	1.000000000000000E+000	11	1.4071307E-001	2.2449095E-003	1.815906757256340E-005	-1.0985675E-003	1.5808314E-002	2.1497230E-003	1.5953811E-002	7.7439718E+000	-3.680964434396506E-007
1.2590932E+004	6.2225674E+001	9.3539743E+000	6.2924809E+001	-8.5488863E+000	2.364148277623462E+001	-2.5756522E-003	2.9982128E-003	1.3513446E+000	2.9861707E-002	1.000000000000000E+000	11	1.2971129E-001	2.0613696E-003	1.794019721607846E-005	-1.3391101E-003	1.5715415E-002	2.3623945E-003	1.5891984E-002	8.5488863E+000	-2.188703564849392E-007
1.1217711E+004	6.2300896E+001	1.0318764E+001	6.3149651E+001	-9.4044018E+000	2.410047986466088E+001	-2.5735640E-003	3.0487629E-003	1.3749542E+000	3.6711462E-002	1.000000000000000E+000	11	1.3317928E-001	2.1089471E-003	1.613485926977268E-005	-1.5796525E-003	1.5622566E-002	2.5875322E-003	1.5835401E-002	9.4044018E+000	-1.805337946305774E-006
1.0002229E+004	6.2525074E+001	1.1378825E+001	6.3552048E+001	-1.0314276E+001	2.455948348648963E+001	-2.5826613E-003	3.4228743E-003	1.3983822E+000	4.4829268E-002	1.000000000000000E+000	11	1.3618329E-001	2.1428624E-003	1.484661052046188E-005	-1.7400142E-003	1.5480862E-002	2.8173341E-003	1.5735134E-002	1.0314276E+001	-1.288248749310799E-006
8.9149297E+003	6.2652397E+001	1.2559134E+001	6.3898785E+001	-1.1335127E+001	2.504190614941763E+001	-2.5686047E-003	3.0859343E-003	1.4214859E+000	5.4913193E-002	1.000000000000000E+000	11	1.3863435E-001	2.1695930E-003	1.642973644421242E-005	-1.1787484E-003	1.5344492E-002	3.0759163E-003	1.5649751E-002	1.1335127E+001	1.583125923750532E-006
7.9439976E+003	6.2806686E+001	1.3808975E+001	6.4306824E+001	-1.2400025E+001	2.556799329441856E+001	-2.5517144E-003	3.4433189E-003	1.4508402E+000	6.6900343E-002	1.000000000000000E+000	11	1.4059463E-001	2.1863098E-003	1.568538894103646E-005	-1.6598334E-003	1.5187692E-002	3.3392375E-003	1.5550449E-002	1.2400025E+001	-7.443475031759591E-007
7.0822334E+003	6.3074459E+001	1.5438583E+001	6.4936409E+001	-1.3753737E+001	2.631388684984995E+001	-2.5305557E-003	3.5042735E-003	1.4556013E+000	8.2277447E-002	1.000000000000000E+000	11	1.2952891E-001	1.9947039E-003	2.089225888812669E-005	-1.9003758E-003	1.4958120E-002	3.6612628E-003	1.5399681E-002	1.3753737E+001	5.206869947090230E-006
6.3077344E+003	6.3204174E+001	1.6988138E+001	6.5447418E+001	-1.5044506E+001	2.694853365331073E+001	-2.5639259E-003	3.9889617E-003	1.4852548E+000	1.0007083E-001	1.000000000000000E+000	11	1.3064170E-001	1.9961323E-003	1.918354911387238E-005	-1.3391101E-003	1.4755731E-002	3.9660735E-003	1.5279441E-002	1.5044506E+001	-1.708709774254305E-006
5.6210552E+003	6.3468071E+001	1.8789557E+001	6.6190964E+001	-1.6491249E+001	2.764928024660912E+001	-2.5164245E-003	3.4304918E-003	1.5069045E+000	1.2142871E-001	1.000000000000000E+000	11	1.3153568E-001	1.9872151E-003	1.941015911215153E-005	-1.4192909E-003	1.4486314E-002	4.2886352E-003	1.5107802E-002	1.6491249E+001	2.266099982791470E-007
5.0116035E+003	6.3686123E+001	2.0894764E+001	6.7026215E+001	-1.8164133E+001	2.840967950940831E+001	-2.5084082E-003	3.2113797E-003	1.5198683E+000	1.4770374E-001	1.000000000000000E+000	11	1.3218638E-001	1.9721594E-003	1.834757898228741E-005	-1.3391101E-003	1.4176056E-002	4.6510184E-003	1.4919535E-002	1.8164133E+001	-1.062580129864121E-006
4.4664292E+003	6.3872116E+001	2.3230087E+001	6.7965317E+001	-1.9986166E+001	2.916970202550874E+001	-2.5114096E-003	3.7538644E-003	1.5339416E+000	1.7919910E-001	1.000000000000000E+000	11	1.3260891E-001	1.9511260E-003	1.804553958510223E-005	-1.1787484E-003	1.3827275E-002	5.0289361E-003	1.4713387E-002	1.9986166E+001	-3.020393971851753E-007
3.9812742E+003	6.4200264E+001	2.5754925E+001	6.9173622E+001	-2.1858950E+001	2.992970070160663E+001	-2.5168532E-003	3.7113058E-003	1.5521646E+000	2.1516781E-001	1.000000000000000E+000	11	1.3293049E-001	1.9216933E-003	1.792383396334157E-005	-1.0183867E-003	1.3417011E-002	5.3824405E-003	1.4456377E-002	2.1858950E+001	-1.217056217606618E-007
3.5465955E+003	6.4487679E+001	2.8656973E+001	7.0568283E+001	-2.3959360E+001	3.068992311102920E+001	-2.5259135E-003	3.1810838E-003	1.5659511E+000	2.5823772E-001	1.000000000000000E+000	11	1.3309956E-001	1.8861102E-003	1.709965789207167E-005	-1.2589293E-003	1.2949638E-002	5.7545477E-003	1.4170672E-002	2.3959360E+001	-8.241760712699034E-007
3.1610112E+003	6.4917694E+001	3.1879478E+001	7.2322945E+001	-2.6154516E+001	3.144968080046965E+001	-2.5418156E-003	4.1630990E-003	1.5793664E+000	3.0686906E-001	1.000000000000000E+000	11	1.3320355E-001	1.8417882E-003	1.672510754142746E-005	-1.0985675E-003	1.2411118E-002	6.0947938E-003	1.3826870E-002	2.6154516E+001	-3.745503506442112E-007
2.8172952E+003	6.5166016E+001	3.5358055E+001	7.4140419E+001	-2.8483562E+001	3.220993190322770E+001	-2.4875470E-003	2.6718641E-003	1.5977154E+000	3.6338422E-001	1.000000000000000E+000	11	1.3309084E-001	1.7951186E-003	1.671551450581562E-005	-1.4994717E-003	1.1855260E-002	6.4324779E-003	1.3487919E-002	2.8483562E+001	-9.593035611841670E-009
